time	V(vout)	V(n001)
0.000000000000000e+000	0.000000e+000	0.000000e+000
7.142857226329270e-009	-1.295479e-005	4.487989e-005
1.428571445265854e-008	-4.337118e-005	8.975979e-005
2.142857167898781e-008	-9.124916e-005	1.346397e-004
2.857142890531708e-008	-1.565888e-004	1.795196e-004
3.571428613164635e-008	-2.393899e-004	2.243995e-004
4.285714335797562e-008	-3.396527e-004	2.692794e-004
5.000000058430487e-008	-4.573771e-004	3.141593e-004
1.000000011686097e-007	-1.572265e-003	6.283185e-004
2.000000023372195e-007	-4.885788e-003	1.256637e-003
4.000000046744390e-007	-1.338778e-002	2.513272e-003
8.000000093488779e-007	-3.241368e-002	5.026527e-003
4.342857193608196e-006	-2.062319e-001	2.730129e-002
7.885714377867513e-006	-3.796060e-001	4.953830e-002
1.142857156212683e-005	-5.525358e-001	7.173754e-002
1.497142874638615e-005	-7.250215e-001	9.389901e-002
1.851428593064547e-005	-8.970629e-001	1.160227e-001
2.205714311490479e-005	-1.068660e+000	1.381087e-001
2.560000029916409e-005	-1.239813e+000	1.601568e-001
4.513125029916410e-005	-2.168767e+000	2.797830e-001
6.466250029916410e-005	-3.066446e+000	3.952008e-001
8.419375029916411e-005	-3.918002e+000	5.046746e-001
1.037250002991641e-004	-4.710628e+000	6.065575e-001
1.232562502991641e-004	-5.432402e+000	6.993172e-001
1.427875002991641e-004	-6.072467e+000	7.815586e-001
1.623187502991641e-004	-6.621198e+000	8.520446e-001
1.818500002991641e-004	-7.070339e+000	9.097151e-001
2.013812502991641e-004	-7.413136e+000	9.537025e-001
2.209125002991641e-004	-7.644433e+000	9.833454e-001
2.404437502991640e-004	-7.760752e+000	9.981979e-001
2.599750002991640e-004	-7.760341e+000	9.980366e-001
2.795062502991641e-004	-7.643208e+000	9.828638e-001
2.990375002991641e-004	-7.411113e+000	9.529079e-001
3.185687502991641e-004	-7.067547e+000	9.086193e-001
3.381000002991641e-004	-6.617679e+000	8.506643e-001
3.576312502991641e-004	-6.068275e+000	7.799145e-001
3.771625002991641e-004	-5.427598e+000	6.974341e-001
3.966937502991642e-004	-4.705285e+000	6.044636e-001
4.162250002991642e-004	-3.912199e+000	5.024014e-001
4.357562502991642e-004	-3.060271e+000	3.927826e-001
4.552875002991642e-004	-2.162313e+000	2.772560e-001
4.748187502991642e-004	-1.231833e+000	1.575592e-001
4.943500002991642e-004	-2.828248e-001	3.549254e-002
5.138812502991642e-004	6.704372e-001	-8.710793e-002
5.334125002991642e-004	1.613615e+000	-2.083982e-001
5.529437502991642e-004	2.532522e+000	-3.265540e-001
5.724750002991643e-004	3.413338e+000	-4.397981e-001
5.920062502991643e-004	4.242814e+000	-5.464272e-001
6.115375002991643e-004	5.008474e+000	-6.448376e-001
6.310687502991643e-004	5.698802e+000	-7.335490e-001
6.506000002991643e-004	6.303414e+000	-8.112271e-001
6.701312502991643e-004	6.813218e+000	-8.767037e-001
6.896625002991644e-004	7.220545e+000	-9.289938e-001
7.091937502991644e-004	7.519268e+000	-9.673109e-001
7.287250002991644e-004	7.710030e+000	-9.910789e-001
7.448206086292526e-004	7.777566e+000	-9.994705e-001
7.630743418223780e-004	7.751437e+000	-9.966277e-001
7.826055918223780e-004	7.613981e+000	-9.790881e-001
8.021368418223780e-004	7.363921e+000	-9.468220e-001
8.216680918223781e-004	7.003099e+000	-9.003149e-001
8.411993418223781e-004	6.536944e+000	-8.402662e-001
8.607305918223781e-004	5.972468e+000	-7.675791e-001
8.802618418223781e-004	5.318160e+000	-6.833469e-001
8.997930918223781e-004	4.583861e+000	-5.888365e-001
9.193243418223781e-004	3.780617e+000	-4.854695e-001
9.388555918223782e-004	2.920509e+000	-3.748006e-001
9.583868418223782e-004	2.016474e+000	-2.584943e-001
9.779180918223782e-004	1.082109e+000	-1.383000e-001
9.974493418223782e-004	1.314692e-001	-1.602557e-002
1.016980591822378e-003	-8.211483e-001	1.064899e-001
1.036511841822378e-003	-1.761415e+000	2.274037e-001
1.056043091822378e-003	-2.675188e+000	3.448971e-001
1.075574341822378e-003	-3.548723e+000	4.572029e-001
1.095105591822378e-003	-4.368883e+000	5.626320e-001
1.114636841822378e-003	-5.123330e+000	6.595985e-001
1.134168091822378e-003	-5.800717e+000	7.466441e-001
1.153699341822378e-003	-6.390857e+000	8.224595e-001
1.173230591822378e-003	-6.884872e+000	8.859043e-001
1.192761841822378e-003	-7.275333e+000	9.360243e-001
1.212293091822378e-003	-7.556366e+000	9.720656e-001
1.231824341822378e-003	-7.729254e+000	9.934862e-001
1.247676074985977e-003	-7.783511e+000	9.998934e-001
1.264136188250303e-003	-7.749743e+000	9.960580e-001
1.283667438250303e-003	-7.603303e+000	9.777090e-001
1.303198688250303e-003	-7.347109e+000	9.446542e-001
1.322729938250303e-003	-6.980407e+000	8.973910e-001
1.342261188250303e-003	-6.508713e+000	8.366302e-001
1.361792438250303e-003	-5.939121e+000	7.632857e-001
1.381323688250303e-003	-5.280200e+000	6.784607e-001
1.400854938250303e-003	-4.541859e+000	5.834309e-001
1.420386188250303e-003	-3.735204e+000	4.796259e-001
1.439917438250303e-003	-2.872369e+000	3.686068e-001
1.459448688250303e-003	-1.966330e+000	2.520435e-001
1.478979938250303e-003	-1.030716e+000	1.316893e-001
1.498511188250303e-003	-7.959979e-002	9.354344e-003
1.518042438250303e-003	8.727138e-001	-1.131213e-001
1.537573688250303e-003	1.811901e+000	-2.338955e-001
1.557104938250303e-003	2.723835e+000	-3.511518e-001
1.576636188250303e-003	3.594800e+000	-4.631263e-001
1.596167438250303e-003	4.411695e+000	-5.681350e-001
1.615698688250303e-003	5.162235e+000	-6.645985e-001
1.635229938250303e-003	5.835130e+000	-7.510657e-001
1.654761188250303e-003	6.420259e+000	-8.262362e-001
1.674292438250303e-003	6.908823e+000	-8.889794e-001
1.693823688250303e-003	7.293470e+000	-9.383515e-001
1.713354938250303e-003	7.568419e+000	-9.736099e-001
1.732886188250303e-003	7.734043e+000	-9.942243e-001
1.749405051094904e-003	7.784897e+000	-9.999930e-001
1.764778867646190e-003	7.748550e+000	-9.956918e-001
1.784310117646190e-003	7.596677e+000	-9.768532e-001
1.803841367646190e-003	7.336775e+000	-9.433218e-001
1.823372617646190e-003	6.966522e+000	-8.956020e-001
1.842903867646190e-003	6.491485e+000	-8.344115e-001
1.862435117646190e-003	5.918810e+000	-7.606707e-001
1.881966367646190e-003	5.257110e+000	-6.754887e-001
1.901497617646190e-003	4.516339e+000	-5.801467e-001
1.921028867646190e-003	3.707637e+000	-4.760787e-001
1.940560117646190e-003	2.843169e+000	-3.648501e-001
1.960091367646190e-003	1.935938e+000	-2.481338e-001
1.979622617646190e-003	9.995883e-001	-1.276853e-001
1.999153867646190e-003	4.820412e-002	-5.316381e-003
2.018685117646190e-003	-9.039049e-001	1.171325e-001
2.038216367646190e-003	-1.842418e+000	2.378197e-001
2.057747617646190e-003	-2.753220e+000	3.549298e-001
2.077278867646190e-003	-3.622610e+000	4.667014e-001
2.096810117646190e-003	-4.437513e+000	5.714535e-001
2.116341367646190e-003	-5.185671e+000	6.676103e-001
2.135872617646190e-003	-5.855833e+000	7.537256e-001
2.155403867646190e-003	-6.437917e+000	8.285043e-001
2.174935117646190e-003	-6.923169e+000	8.908214e-001
2.194466367646190e-003	-7.304290e+000	9.397397e-001
2.213997617646190e-003	-7.575549e+000	9.745235e-001
2.233528867646190e-003	-7.736774e+000	9.946496e-001
2.250451477803203e-003	-7.784606e+000	9.999959e-001
2.265735149292713e-003	-7.744253e+000	9.951167e-001
2.285266399292713e-003	-7.586586e+000	9.755502e-001
2.304797649292713e-003	-7.321177e+000	9.413107e-001
2.324328899292713e-003	-6.945651e+000	8.929129e-001
2.343860149292713e-003	-6.465654e+000	8.310849e-001
2.363391399292713e-003	-5.888409e+000	7.567566e-001
2.382922649292713e-003	-5.222596e+000	6.710460e-001
2.402453899292713e-003	-4.478230e+000	5.752422e-001
2.421985149292713e-003	-3.666507e+000	4.707862e-001
2.441516399292713e-003	-2.799637e+000	3.592492e-001
2.461047649292713e-003	-1.890657e+000	2.423088e-001
2.480578899292713e-003	-9.532411e-001	1.217238e-001
2.500110149292713e-003	-1.487303e-003	-6.920884e-004
2.519641399292714e-003	9.502887e-001	-1.230975e-001
2.539172649292714e-003	1.887771e+000	-2.436515e-001
2.558703899292714e-003	2.796860e+000	-3.605407e-001
2.578235149292714e-003	3.663881e+000	-4.720070e-001
2.597766399292714e-003	4.475794e+000	-5.763739e-001
2.617297649292714e-003	5.220387e+000	-6.720716e-001
2.636828899292714e-003	5.886459e+000	-7.576607e-001
2.656360149292714e-003	6.463995e+000	-8.318539e-001
2.675891399292714e-003	6.944306e+000	-8.935353e-001
2.695422649292714e-003	7.320169e+000	-9.417770e-001
2.714953899292714e-003	7.585930e+000	-9.758536e-001
2.734485149292714e-003	7.740602e+000	-9.952523e-001
2.752008459549084e-003	7.782060e+000	-9.999204e-001
2.768270378407419e-003	7.729684e+000	-9.934182e-001
2.787801628407419e-003	7.558512e+000	-9.719257e-001
2.807332878407419e-003	7.278548e+000	-9.358147e-001
2.826864128407419e-003	6.889108e+000	-8.856281e-001
2.846395378407419e-003	6.396048e+000	-8.221208e-001
2.865926628407419e-003	5.806786e+000	-7.462481e-001
2.885457878407419e-003	5.130184e+000	-6.591511e-001
2.904989128407419e-003	4.376419e+000	-5.621399e-001
2.924520378407419e-003	3.556828e+000	-4.566735e-001
2.944051628407420e-003	2.683741e+000	-3.443384e-001
2.963582878407420e-003	1.770287e+000	-2.268241e-001
2.983114128407420e-003	8.302064e-001	-1.058981e-001
3.002645378407420e-003	-1.223609e-001	1.662064e-002
3.022176628407420e-003	-1.073088e+000	1.388894e-001
3.041707878407420e-003	-2.007674e+000	2.590691e-001
3.061239128407420e-003	-2.912063e+000	3.753523e-001
3.080770378407420e-003	-3.772651e+000	4.859897e-001
3.100301628407420e-003	-4.576496e+000	5.893174e-001
3.119832878407420e-003	-5.311505e+000	6.837813e-001
3.139364128407420e-003	-5.966625e+000	7.679604e-001
3.158895378407420e-003	-6.532001e+000	8.405887e-001
3.178426628407420e-003	-6.999130e+000	9.005737e-001
3.197957878407420e-003	-7.360986e+000	9.470133e-001
3.217489128407420e-003	-7.612126e+000	9.792089e-001
3.237020378407420e-003	-7.748774e+000	9.966764e-001
3.256551628407420e-003	-7.769495e+000	9.991528e-001
3.275666975425134e-003	-7.676011e+000	9.870241e-001
3.295198225425134e-003	-7.465672e+000	9.599454e-001
3.314729475425134e-003	-7.143662e+000	9.184284e-001
3.334260725425134e-003	-6.714205e+000	8.630973e-001
3.353791975425134e-003	-6.183760e+000	7.947843e-001
3.373323225425134e-003	-5.560305e+000	7.145171e-001
3.392854475425134e-003	-4.853217e+000	6.235029e-001
3.412385725425134e-003	-4.073133e+000	5.231106e-001
3.431916975425134e-003	-3.231785e+000	4.148503e-001
3.451448225425134e-003	-2.341828e+000	3.003502e-001
3.470979475425134e-003	-1.416648e+000	1.813326e-001
3.490510725425134e-003	-4.701599e-001	5.958755e-002
3.510041975425134e-003	4.833991e-001	-6.305373e-002
3.529573225425134e-003	1.429687e+000	-1.847466e-001
3.549104475425134e-003	2.354471e+000	-3.036608e-001
3.568635725425134e-003	3.243842e+000	-4.180076e-001
3.588166975425134e-003	4.084422e+000	-5.260671e-001
3.607698225425134e-003	4.863568e+000	-6.262142e-001
3.627229475425134e-003	5.569562e+000	-7.169424e-001
3.646760725425134e-003	6.191785e+000	-7.968871e-001
3.666291975425134e-003	6.720877e+000	-8.648459e-001
3.685823225425134e-003	7.148882e+000	-9.197966e-001
3.705354475425134e-003	7.469361e+000	-9.609127e-001
3.724885725425134e-003	7.677494e+000	-9.875758e-001
3.744416975425134e-003	7.771689e+000	-9.993848e-001
3.762924173823277e-003	7.751649e+000	-9.967047e-001
3.782455423823277e-003	7.615464e+000	-9.792796e-001
3.801986673823277e-003	7.366272e+000	-9.471252e-001
3.821517923823277e-003	7.006283e+000	-9.007251e-001
3.841049173823277e-003	6.540914e+000	-8.407773e-001
3.860580423823277e-003	5.977162e+000	-7.681835e-001
3.880111673823277e-003	5.323509e+000	-6.840354e-001
3.899642923823277e-003	4.589785e+000	-5.895988e-001
3.919174173823277e-003	3.787026e+000	-4.862942e-001
3.938705423823277e-003	2.927307e+000	-3.756751e-001
3.958236673823276e-003	2.023558e+000	-2.594056e-001
3.977767923823276e-003	1.089374e+000	-1.392344e-001
3.997299173823275e-003	1.388042e-001	-1.696898e-002
4.016830423823275e-003	-8.138528e-001	1.055517e-001
4.036361673823275e-003	-1.754269e+000	2.264848e-001
4.055892923823274e-003	-2.668298e+000	3.440113e-001
4.075424173823274e-003	-3.542194e+000	4.563636e-001
4.094955423823273e-003	-4.362812e+000	5.618517e-001
4.114486673823273e-003	-5.117809e+000	6.588891e-001
4.134017923823273e-003	-5.795830e+000	7.460161e-001
4.153549173823272e-003	-6.386676e+000	8.219224e-001
4.173080423823272e-003	-6.881461e+000	8.854662e-001
4.192611673823271e-003	-7.272742e+000	9.356918e-001
4.212142923823271e-003	-7.554635e+000	9.718437e-001
4.231674173823270e-003	-7.728549e+000	9.933782e-001
4.247431556707668e-003	-7.783250e+000	9.998698e-001
4.264045287175838e-003	-7.749902e+000	9.961086e-001
4.283576537175838e-003	-7.604231e+000	9.778287e-001
4.303107787175837e-003	-7.348561e+000	9.448415e-001
4.322639037175837e-003	-6.982362e+000	8.976429e-001
4.342170287175836e-003	-6.511141e+000	8.369430e-001
4.361701537175836e-003	-5.941987e+000	7.636546e-001
4.381232787175836e-003	-5.283459e+000	6.788802e-001
4.400764037175835e-003	-4.545462e+000	5.838947e-001
4.420295287175835e-003	-3.739098e+000	4.801270e-001
4.439826537175834e-003	-2.876495e+000	3.691377e-001
4.459357787175834e-003	-1.970626e+000	2.525962e-001
4.478889037175833e-003	-1.035118e+000	1.322555e-001
4.498420287175833e-003	-8.404033e-002	9.925465e-003
4.517951537175833e-003	8.683009e-001	-1.125538e-001
4.537482787175832e-003	1.807582e+000	-2.333402e-001
4.557014037175832e-003	2.719675e+000	-3.506169e-001
4.576545287175831e-003	3.590862e+000	-4.626200e-001
4.596076537175831e-003	4.408038e+000	-5.676649e-001
4.615607787175831e-003	5.158914e+000	-6.641716e-001
4.635139037175830e-003	5.832194e+000	-7.506885e-001
4.654670287175830e-003	6.417753e+000	-8.259144e-001
4.674201537175829e-003	6.906784e+000	-8.887177e-001
4.693732787175829e-003	7.291931e+000	-9.381539e-001
4.713264037175828e-003	7.567400e+000	-9.734794e-001
4.732795287175828e-003	7.733647e+000	-9.941629e-001
4.749257041534661e-003	7.784810e+000	-9.999891e-001
4.764723854410551e-003	7.748657e+000	-9.957237e-001
4.784255104410551e-003	7.597249e+000	-9.769270e-001
4.803786354410550e-003	7.337665e+000	-9.434364e-001
4.823317604410550e-003	6.967715e+000	-8.957557e-001
4.842848854410550e-003	6.492964e+000	-8.346019e-001
4.862380104410549e-003	5.920552e+000	-7.608950e-001
4.881911354410549e-003	5.259090e+000	-6.757435e-001
4.901442604410548e-003	4.518526e+000	-5.804282e-001
4.920973854410548e-003	3.709999e+000	-4.763826e-001
4.940505104410548e-003	2.845671e+000	-3.651719e-001
4.960036354410547e-003	1.938541e+000	-2.484686e-001
4.979567604410547e-003	1.002254e+000	-1.280282e-001
4.999098854410546e-003	5.089162e-002	-5.662034e-003
5.018630104410546e-003	-9.012356e-001	1.167893e-001
5.038161354410545e-003	-1.839807e+000	2.374839e-001
5.057692604410545e-003	-2.750706e+000	3.546066e-001
5.077223854410545e-003	-3.620232e+000	4.663957e-001
5.096755104410544e-003	-4.435306e+000	5.711698e-001
5.116286354410544e-003	-5.183668e+000	6.673529e-001
5.135817604410543e-003	-5.854064e+000	7.534984e-001
5.155348854410543e-003	-6.436409e+000	8.283106e-001
5.174880104410543e-003	-6.921945e+000	8.906643e-001
5.194411354410542e-003	-7.303369e+000	9.396215e-001
5.213942604410542e-003	-7.574944e+000	9.744459e-001
5.233473854410541e-003	-7.736545e+000	9.946138e-001
5.250361905007093e-003	-7.784727e+000	9.999974e-001
5.265589296433447e-003	-7.745031e+000	9.952067e-001
5.285120546433446e-003	-7.588143e+000	9.757513e-001
5.304651796433446e-003	-7.323574e+000	9.416196e-001
5.324183046433445e-003	-6.948850e+000	8.933252e-001
5.343714296433445e-003	-6.469609e+000	8.315942e-001
5.363245546433445e-003	-5.893059e+000	7.573553e-001
5.382776796433444e-003	-5.227872e+000	6.717252e-001
5.402308046433444e-003	-4.484053e+000	5.759916e-001
5.421839296433443e-003	-3.672789e+000	4.715946e-001
5.441370546433443e-003	-2.806283e+000	3.601043e-001
5.460901796433442e-003	-1.897568e+000	2.431978e-001
5.480433046433442e-003	-9.603122e-001	1.226333e-001
5.499964296433442e-003	-8.612635e-003	2.243321e-004
5.519495546433441e-003	9.432164e-001	-1.221880e-001
5.539026796433441e-003	1.880858e+000	-2.427626e-001
5.558558046433440e-003	2.790210e+000	-3.596857e-001
5.578089296433440e-003	3.657595e+000	-4.711989e-001
5.597620546433440e-003	4.469965e+000	-5.756248e-001
5.617151796433439e-003	5.215104e+000	-6.713927e-001
5.636683046433439e-003	5.881802e+000	-7.570623e-001
5.656214296433438e-003	6.460032e+000	-8.313450e-001
5.675745546433438e-003	6.941099e+000	-8.931234e-001
5.695276796433437e-003	7.317764e+000	-9.414685e-001
5.714808046433437e-003	7.584365e+000	-9.756529e-001
5.734339296433437e-003	7.740037e+000	-9.951627e-001
5.751770992768144e-003	7.782502e+000	-9.999381e-001
5.767883717378744e-003	7.732033e+000	-9.936935e-001
5.787414967378743e-003	7.562918e+000	-9.724945e-001
5.806946217378743e-003	7.285169e+000	-9.366683e-001
5.826477467378743e-003	6.897844e+000	-8.867537e-001
5.846008717378742e-003	6.406769e+000	-8.235015e-001
5.865539967378742e-003	5.819330e+000	-7.478631e-001
5.885071217378741e-003	5.144362e+000	-6.609762e-001
5.904602467378741e-003	4.392019e+000	-5.641475e-001
5.924133717378740e-003	3.573615e+000	-4.588335e-001
5.943664967378740e-003	2.701461e+000	-3.466183e-001
5.963196217378740e-003	1.788675e+000	-2.291895e-001
5.982727467378739e-003	8.489854e-001	-1.083136e-001
6.002258717378739e-003	-1.034734e-001	1.419146e-002
6.021789967378738e-003	-1.054376e+000	1.364831e-001
6.041321217378738e-003	-1.989419e+000	2.567219e-001
6.060852467378738e-003	-2.894540e+000	3.730993e-001
6.080383717378737e-003	-3.756124e+000	4.838650e-001
6.099914967378737e-003	-4.561212e+000	5.873529e-001
6.119446217378736e-003	-5.297695e+000	6.820065e-001
6.138977467378736e-003	-5.954495e+000	7.664021e-001
6.158508717378735e-003	-6.521736e+000	8.392702e-001
6.178039967378735e-003	-6.990883e+000	8.995150e-001
6.197571217378735e-003	-7.354881e+000	9.462302e-001
6.217102467378734e-003	-7.608256e+000	9.787132e-001
6.236633717378734e-003	-7.747195e+000	9.964755e-001
6.256164967378733e-003	-7.770596e+000	9.992499e-001
6.275037562015908e-003	-7.681223e+000	9.876514e-001
6.294568812015907e-003	-7.474203e+000	9.610460e-001
6.314100062015907e-003	-7.155746e+000	9.199856e-001
6.333631312015906e-003	-6.729659e+000	8.650877e-001
6.353162562015906e-003	-6.202351e+000	7.971782e-001
6.372693812015906e-003	-5.581754e+000	7.172783e-001
6.392225062015905e-003	-4.877202e+000	6.265899e-001
6.411756312015905e-003	-4.099292e+000	5.264770e-001
6.431287562015904e-003	-3.259726e+000	4.184454e-001
6.450818812015904e-003	-2.371130e+000	3.041200e-001
6.470350062015903e-003	-1.446870e+000	1.852203e-001
6.489881312015903e-003	-5.008486e-001	6.353477e-002
6.509412562015903e-003	4.527062e-001	-5.910640e-002
6.528943812015902e-003	1.399452e+000	-1.808586e-001
6.548475062015902e-003	2.325148e+000	-2.998904e-001
6.568006312015901e-003	3.215872e+000	-4.144117e-001
6.587537562015901e-003	4.058226e+000	-5.226998e-001
6.607068812015901e-003	4.839540e+000	-6.231260e-001
6.626600062015900e-003	5.548063e+000	-7.141798e-001
6.646131312015900e-003	6.173139e+000	-7.944917e-001
6.665662562015899e-003	6.705364e+000	-8.628537e-001
6.685193812015899e-003	7.136735e+000	-9.182376e-001
6.704725062015898e-003	7.460763e+000	-9.598103e-001
6.724256312015898e-003	7.672575e+000	-9.869466e-001
6.743787562015898e-003	7.769929e+000	-9.992383e-001
6.762689960767491e-003	7.751966e+000	-9.968230e-001
6.782221210767491e-003	7.617763e+000	-9.795765e-001
6.801752460767491e-003	7.369925e+000	-9.475963e-001
6.821283710767490e-003	7.011237e+000	-9.013634e-001
6.840814960767490e-003	6.547092e+000	-8.415731e-001
6.860346210767489e-003	5.984474e+000	-7.691248e-001
6.879877460767489e-003	5.331842e+000	-6.851082e-001
6.899408710767488e-003	4.599015e+000	-5.907868e-001
6.918939960767488e-003	3.797015e+000	-4.875795e-001
6.938471210767488e-003	2.937904e+000	-3.770386e-001
