time	V(vin)	V(vout)	V(n001)
0.000000000000000e+000	3.495488e-007	-5.051117e+000	5.095000e+000
1.428571445265854e-008	1.704656e-004	-5.051157e+000	5.095000e+000
2.857142890531708e-008	3.401010e-004	-5.051218e+000	5.095000e+000
4.285714335797562e-008	5.092557e-004	-5.051299e+000	5.095000e+000
5.714285781063416e-008	6.779298e-004	-5.051400e+000	5.095000e+000
7.142857226329269e-008	8.461231e-004	-5.051522e+000	5.095000e+000
8.571428671595124e-008	1.013836e-003	-5.051664e+000	5.095000e+000
1.000000011686097e-007	1.181068e-003	-5.051826e+000	5.095000e+000
2.000000023372195e-007	2.352708e-003	-5.052920e+000	5.095000e+000
3.828571473312489e-006	4.484300e-002	-5.095189e+000	5.095000e+000
7.457142944287758e-006	8.722150e-002	-5.137351e+000	5.095000e+000
1.108571441526303e-005	1.294882e-001	-5.179404e+000	5.095000e+000
1.471428588623830e-005	1.716431e-001	-5.221349e+000	5.095000e+000
1.834285735721357e-005	2.136863e-001	-5.263186e+000	5.095000e+000
2.197142882818883e-005	2.556176e-001	-5.304915e+000	5.095000e+000
2.560000029916409e-005	2.974371e-001	-5.346536e+000	5.095000e+000
4.513125029916410e-005	5.190288e-001	-5.567049e+000	5.095000e+000
6.466250029916410e-005	7.331362e-001	-5.780121e+000	5.095000e+000
8.419375029916411e-005	9.362166e-001	-5.982228e+000	5.095000e+000
1.037250002991641e-004	1.125215e+000	-6.170331e+000	5.095000e+000
1.232562502991641e-004	1.297290e+000	-6.341599e+000	5.095000e+000
1.427875002991641e-004	1.449852e+000	-6.493458e+000	5.095000e+000
1.623187502991641e-004	1.580607e+000	-6.623623e+000	5.095000e+000
1.818500002991641e-004	1.687588e+000	-6.730135e+000	5.095000e+000
2.013812502991641e-004	1.769186e+000	-6.811394e+000	5.095000e+000
2.209125002991641e-004	1.824175e+000	-6.866177e+000	5.095000e+000
2.404437502991640e-004	1.851725e+000	-6.893659e+000	5.095000e+000
2.599750002991640e-004	1.851425e+000	-6.893427e+000	5.095000e+000
2.795062502991641e-004	1.823277e+000	-6.865486e+000	5.095000e+000
2.990375002991641e-004	1.767705e+000	-6.810255e+000	5.095000e+000
3.185687502991641e-004	1.685545e+000	-6.728564e+000	5.095000e+000
3.381000002991641e-004	1.578033e+000	-6.621644e+000	5.095000e+000
3.576312502991641e-004	1.446786e+000	-6.491101e+000	5.095000e+000
3.771625002991641e-004	1.293778e+000	-6.338899e+000	5.095000e+000
3.966937502991642e-004	1.121311e+000	-6.167328e+000	5.095000e+000
4.162250002991642e-004	9.319776e-001	-5.978968e+000	5.095000e+000
4.357562502991642e-004	7.286267e-001	-5.776652e+000	5.095000e+000
4.552875002991642e-004	5.143165e-001	-5.563424e+000	5.095000e+000
4.748187502991642e-004	2.922706e-001	-5.342490e+000	5.095000e+000
4.943500002991642e-004	6.582861e-002	-5.117174e+000	5.095000e+000
5.138812502991642e-004	-1.616035e-001	-4.890863e+000	5.095000e+000
5.334125002991642e-004	-3.866049e-001	-4.666964e+000	5.095000e+000
5.529437502991642e-004	-6.057914e-001	-4.448842e+000	5.095000e+000
5.724750002991643e-004	-8.158662e-001	-4.239779e+000	5.095000e+000
5.920062502991643e-004	-1.013670e+000	-4.042920e+000	5.095000e+000
6.115375002991643e-004	-1.196227e+000	-3.861224e+000	5.095000e+000
6.310687502991643e-004	-1.360791e+000	-3.697426e+000	5.095000e+000
6.506000002991643e-004	-1.504888e+000	-3.553988e+000	5.095000e+000
6.701312502991643e-004	-1.626350e+000	-3.433069e+000	5.095000e+000
6.896625002991644e-004	-1.723350e+000	-3.336487e+000	5.095000e+000
7.091937502991644e-004	-1.794430e+000	-3.265694e+000	5.095000e+000
7.287250002991644e-004	-1.839744e+000	-3.220537e+000	5.095000e+000
7.448206086292526e-004	-1.855691e+000	-3.204613e+000	5.095000e+000
7.630743418223780e-004	-1.849267e+000	-3.210941e+000	5.095000e+000
7.826055918223780e-004	-1.816271e+000	-3.243707e+000	5.095000e+000
8.021368418223780e-004	-1.756414e+000	-3.303203e+000	5.095000e+000
8.216680918223781e-004	-1.670139e+000	-3.388989e+000	5.095000e+000
8.411993418223781e-004	-1.558743e+000	-3.499775e+000	5.095000e+000
8.607305918223781e-004	-1.423902e+000	-3.633895e+000	5.095000e+000
8.802618418223781e-004	-1.267645e+000	-3.789331e+000	5.095000e+000
8.997930918223781e-004	-1.092321e+000	-3.963746e+000	5.095000e+000
9.193243418223781e-004	-9.005671e-001	-4.154515e+000	5.095000e+000
9.388555918223782e-004	-6.952680e-001	-4.358770e+000	5.095000e+000
9.583868418223782e-004	-4.795116e-001	-4.573439e+000	5.095000e+000
9.779180918223782e-004	-2.565428e-001	-4.795293e+000	5.095000e+000
9.974493418223782e-004	-2.971537e-002	-5.020994e+000	5.095000e+000
1.016980591822378e-003	1.975590e-001	-5.247148e+000	5.095000e+000
1.036511841822378e-003	4.218619e-001	-5.470354e+000	5.095000e+000
1.056043091822378e-003	6.398197e-001	-5.687254e+000	5.095000e+000
1.075574341822378e-003	8.481539e-001	-5.894587e+000	5.095000e+000
1.095105591822378e-003	1.043731e+000	-6.089232e+000	5.095000e+000
1.114636841822378e-003	1.223610e+000	-6.268263e+000	5.095000e+000
1.134168091822378e-003	1.385084e+000	-6.428988e+000	5.095000e+000
1.153699341822378e-003	1.525725e+000	-6.568987e+000	5.095000e+000
1.173230591822378e-003	1.643418e+000	-6.686157e+000	5.095000e+000
1.192761841822378e-003	1.736393e+000	-6.778734e+000	5.095000e+000
1.212293091822378e-003	1.803250e+000	-6.845326e+000	5.095000e+000
1.231824341822378e-003	1.844300e+000	-6.886240e+000	5.095000e+000
1.247676074985977e-003	1.857080e+000	-6.899013e+000	5.095000e+000
1.264136188250303e-003	1.848853e+000	-6.890883e+000	5.095000e+000
1.283667438250303e-003	1.813714e+000	-6.855984e+000	5.095000e+000
1.303198688250303e-003	1.752393e+000	-6.795033e+000	5.095000e+000
1.322729938250303e-003	1.664715e+000	-6.707850e+000	5.095000e+000
1.342261188250303e-003	1.551999e+000	-6.595750e+000	5.095000e+000
1.361792438250303e-003	1.415938e+000	-6.460416e+000	5.095000e+000
1.381323688250303e-003	1.258581e+000	-6.303886e+000	5.095000e+000
1.400854938250303e-003	1.082294e+000	-6.128512e+000	5.095000e+000
1.420386188250303e-003	8.897275e-001	-5.936934e+000	5.095000e+000
1.439917438250303e-003	6.837789e-001	-5.732032e+000	5.095000e+000
1.459448688250303e-003	4.675457e-001	-5.516888e+000	5.095000e+000
1.478979938250303e-003	2.442802e-001	-5.294739e+000	5.095000e+000
1.498511188250303e-003	1.734049e-002	-5.068925e+000	5.095000e+000
1.518042438250303e-003	-2.098600e-001	-4.842844e+000	5.095000e+000
1.537573688250303e-003	-4.339041e-001	-4.619895e+000	5.095000e+000
1.557104938250303e-003	-6.514218e-001	-4.403432e+000	5.095000e+000
1.576636188250303e-003	-8.591415e-001	-4.196712e+000	5.095000e+000
1.596167438250303e-003	-1.053939e+000	-4.002841e+000	5.095000e+000
1.615698688250303e-003	-1.232884e+000	-3.824738e+000	5.095000e+000
1.635229938250303e-003	-1.393286e+000	-3.665081e+000	5.095000e+000
1.654761188250303e-003	-1.532731e+000	-3.526272e+000	5.095000e+000
1.674292438250303e-003	-1.649122e+000	-3.410397e+000	5.095000e+000
1.693823688250303e-003	-1.740709e+000	-3.319200e+000	5.095000e+000
1.713354938250303e-003	-1.806114e+000	-3.254053e+000	5.095000e+000
1.732886188250303e-003	-1.845431e+000	-3.214864e+000	5.095000e+000
1.749405051094904e-003	-1.857393e+000	-3.202904e+000	5.095000e+000
1.764778867646190e-003	-1.848561e+000	-3.211638e+000	5.095000e+000
1.784310117646190e-003	-1.812125e+000	-3.247827e+000	5.095000e+000
1.803841367646190e-003	-1.749921e+000	-3.309659e+000	5.095000e+000
1.823372617646190e-003	-1.661396e+000	-3.397684e+000	5.095000e+000
1.842903867646190e-003	-1.547882e+000	-3.510578e+000	5.095000e+000
1.862435117646190e-003	-1.411087e+000	-3.646643e+000	5.095000e+000
1.881966367646190e-003	-1.253067e+000	-3.803833e+000	5.095000e+000
1.901497617646190e-003	-1.076200e+000	-3.979783e+000	5.095000e+000
1.921028867646190e-003	-8.831464e-001	-4.171847e+000	5.095000e+000
1.940560117646190e-003	-6.768092e-001	-4.377136e+000	5.095000e+000
1.960091367646190e-003	-4.602922e-001	-4.592562e+000	5.095000e+000
1.979622617646190e-003	-2.368519e-001	-4.814885e+000	5.095000e+000
1.999153867646190e-003	-9.849098e-003	-5.040762e+000	5.095000e+000
2.018685117646190e-003	2.173018e-001	-5.266794e+000	5.095000e+000
2.038216367646190e-003	4.411843e-001	-5.489583e+000	5.095000e+000
2.057747617646190e-003	6.584310e-001	-5.705776e+000	5.095000e+000
2.077278867646190e-003	8.657743e-001	-5.912122e+000	5.095000e+000
2.096810117646190e-003	1.060095e+000	-6.105518e+000	5.095000e+000
2.116341367646190e-003	1.238472e+000	-6.283056e+000	5.095000e+000
2.135872617646190e-003	1.398221e+000	-6.442063e+000	5.095000e+000
2.155403867646190e-003	1.536939e+000	-6.580150e+000	5.095000e+000
2.174935117646190e-003	1.652540e+000	-6.695238e+000	5.095000e+000
2.194466367646190e-003	1.743285e+000	-6.785598e+000	5.095000e+000
2.213997617646190e-003	1.807810e+000	-6.849869e+000	5.095000e+000
2.233528867646190e-003	1.846076e+000	-6.888013e+000	5.095000e+000
2.250451477803203e-003	1.857313e+000	-6.899253e+000	5.095000e+000
2.265735149292713e-003	1.847526e+000	-6.889568e+000	5.095000e+000
2.285266399292713e-003	1.809709e+000	-6.852005e+000	5.095000e+000
2.304797649292713e-003	1.746191e+000	-6.788866e+000	5.095000e+000
2.324328899292713e-003	1.656408e+000	-6.699590e+000	5.095000e+000
2.343860149292713e-003	1.541712e+000	-6.585518e+000	5.095000e+000
2.363391399292713e-003	1.403826e+000	-6.448369e+000	5.095000e+000
2.382922649292713e-003	1.244826e+000	-6.290203e+000	5.095000e+000
2.402453899292713e-003	1.067103e+000	-6.113400e+000	5.095000e+000
2.421985149292713e-003	8.733292e-001	-5.920619e+000	5.095000e+000
2.441516399292713e-003	6.664199e-001	-5.714761e+000	5.095000e+000
2.461047649292713e-003	4.494870e-001	-5.498920e+000	5.095000e+000
2.480578899292713e-003	2.257934e-001	-5.276344e+000	5.095000e+000
2.519641399292714e-003	-2.283666e-001	-4.824428e+000	5.095000e+000
2.539172649292714e-003	-4.520019e-001	-4.601885e+000	5.095000e+000
2.558703899292714e-003	-6.688387e-001	-4.386099e+000	5.095000e+000
2.578235149292714e-003	-8.756157e-001	-4.180316e+000	5.095000e+000
2.597766399292714e-003	-1.069222e+000	-3.987630e+000	5.095000e+000
2.617297649292714e-003	-1.246747e+000	-3.810940e+000	5.095000e+000
2.636828899292714e-003	-1.405520e+000	-3.652904e+000	5.095000e+000
2.656360149292714e-003	-1.543152e+000	-3.515897e+000	5.095000e+000
2.675891399292714e-003	-1.657573e+000	-3.401982e+000	5.095000e+000
2.695422649292714e-003	-1.747064e+000	-3.312872e+000	5.095000e+000
2.714953899292714e-003	-1.810276e+000	-3.249906e+000	5.095000e+000
2.734485149292714e-003	-1.846979e+000	-3.213318e+000	5.095000e+000
2.752008459549084e-003	-1.856688e+000	-3.203595e+000	5.095000e+000
2.768270378407419e-003	-1.844024e+000	-3.216141e+000	5.095000e+000
2.787801628407419e-003	-1.802984e+000	-3.256911e+000	5.095000e+000
2.807332878407419e-003	-1.735994e+000	-3.323505e+000	5.095000e+000
2.826864128407419e-003	-1.642893e+000	-3.416084e+000	5.095000e+000
2.846395378407419e-003	-1.525082e+000	-3.533255e+000	5.095000e+000
2.865926628407419e-003	-1.384332e+000	-3.673257e+000	5.095000e+000
2.885457878407419e-003	-1.222760e+000	-3.833982e+000	5.095000e+000
2.904989128407419e-003	-1.042796e+000	-4.013015e+000	5.095000e+000
2.924520378407419e-003	-8.471484e-001	-4.207661e+000	5.095000e+000
2.944051628407420e-003	-6.387585e-001	-4.414994e+000	5.095000e+000
2.963582878407420e-003	-4.207611e-001	-4.631895e+000	5.095000e+000
2.983114128407420e-003	-1.964351e-001	-4.855101e+000	5.095000e+000
3.002645378407420e-003	3.084554e-002	-5.081255e+000	5.095000e+000
3.022176628407420e-003	2.576622e-001	-5.306957e+000	5.095000e+000
3.041707878407420e-003	4.806034e-001	-5.528810e+000	5.095000e+000
3.061239128407420e-003	6.963159e-001	-5.743478e+000	5.095000e+000
3.080770378407420e-003	9.015552e-001	-5.947732e+000	5.095000e+000
3.100301628407420e-003	1.093234e+000	-6.138501e+000	5.095000e+000
3.119832878407420e-003	1.268470e+000	-6.312914e+000	5.095000e+000
3.139364128407420e-003	1.424627e+000	-6.468349e+000	5.095000e+000
3.158895378407420e-003	1.559356e+000	-6.602467e+000	5.095000e+000
3.178426628407420e-003	1.670631e+000	-6.713251e+000	5.095000e+000
3.197957878407420e-003	1.756778e+000	-6.799036e+000	5.095000e+000
3.217489128407420e-003	1.816501e+000	-6.858530e+000	5.095000e+000
3.237020378407420e-003	1.848903e+000	-6.890838e+000	5.095000e+000
3.256551628407420e-003	1.853644e+000	-6.895624e+000	5.095000e+000
3.275666975425134e-003	1.831142e+000	-6.873300e+000	5.095000e+000
3.295198225425134e-003	1.780760e+000	-6.823233e+000	5.095000e+000
3.314729475425134e-003	1.703742e+000	-6.746659e+000	5.095000e+000
3.334260725425134e-003	1.601097e+000	-6.644582e+000	5.095000e+000
3.353791975425134e-003	1.474371e+000	-6.518538e+000	5.095000e+000
3.373323225425134e-003	1.325469e+000	-6.370423e+000	5.095000e+000
3.392854475425134e-003	1.156630e+000	-6.202465e+000	5.095000e+000
3.412385725425134e-003	9.703948e-001	-6.017189e+000	5.095000e+000
3.431916975425134e-003	7.695639e-001	-5.817382e+000	5.095000e+000
3.451448225425134e-003	5.571580e-001	-5.606050e+000	5.095000e+000
3.470979475425134e-003	3.363719e-001	-5.386371e+000	5.095000e+000
3.490510725425134e-003	1.105265e-001	-5.161650e+000	5.095000e+000
3.510041975425134e-003	-1.169813e-001	-4.935266e+000	5.095000e+000
3.529573225425134e-003	-3.427297e-001	-4.710625e+000	5.095000e+000
3.549104475425134e-003	-5.633230e-001	-4.491105e+000	5.095000e+000
3.568635725425134e-003	-7.754434e-001	-4.280008e+000	5.095000e+000
3.588166975425134e-003	-9.759005e-001	-4.080509e+000	5.095000e+000
3.607698225425134e-003	-1.161679e+000	-3.895610e+000	5.095000e+000
3.627229475425134e-003	-1.329985e+000	-3.728090e+000	5.095000e+000
3.646760725425134e-003	-1.478287e+000	-3.580469e+000	5.095000e+000
3.666291975425134e-003	-1.604353e+000	-3.454969e+000	5.095000e+000
3.685823225425134e-003	-1.706289e+000	-3.353476e+000	5.095000e+000
3.705354475425134e-003	-1.782561e+000	-3.277517e+000	5.095000e+000
3.724885725425134e-003	-1.832021e+000	-3.228235e+000	5.095000e+000
3.744416975425134e-003	-1.854293e+000	-3.206005e+000	5.095000e+000
3.762924173823277e-003	-1.849320e+000	-3.210890e+000	5.095000e+000
3.782455423823277e-003	-1.816627e+000	-3.243354e+000	5.095000e+000
3.801986673823277e-003	-1.756976e+000	-3.302644e+000	5.095000e+000
3.821517923823277e-003	-1.670900e+000	-3.388232e+000	5.095000e+000
3.841049173823277e-003	-1.559691e+000	-3.498832e+000	5.095000e+000
3.860580423823277e-003	-1.425024e+000	-3.632780e+000	5.095000e+000
3.880111673823277e-003	-1.268922e+000	-3.788061e+000	5.095000e+000
3.899642923823277e-003	-1.093735e+000	-3.962339e+000	5.095000e+000
3.919174173823277e-003	-9.020969e-001	-4.152993e+000	5.095000e+000
3.938705423823277e-003	-6.968905e-001	-4.357156e+000	5.095000e+000
3.958236673823276e-003	-4.812022e-001	-4.571757e+000	5.095000e+000
3.977767923823276e-003	-2.582762e-001	-4.793568e+000	5.095000e+000
3.997299173823275e-003	-3.146545e-002	-5.019253e+000	5.095000e+000
4.016830423823275e-003	1.958186e-001	-5.245417e+000	5.095000e+000
4.036361673823275e-003	4.201573e-001	-5.468658e+000	5.095000e+000
4.055892923823274e-003	6.381764e-001	-5.685619e+000	5.095000e+000
4.075424173823274e-003	8.465968e-001	-5.893037e+000	5.095000e+000
4.094955423823273e-003	1.042284e+000	-6.087791e+000	5.095000e+000
4.114486673823273e-003	1.222294e+000	-6.266953e+000	5.095000e+000
4.134017923823273e-003	1.383919e+000	-6.427828e+000	5.095000e+000
4.153549173823272e-003	1.524729e+000	-6.567995e+000	5.095000e+000
4.173080423823272e-003	1.642606e+000	-6.685348e+000	5.095000e+000
4.192611673823271e-003	1.735776e+000	-6.778120e+000	5.095000e+000
4.212142923823271e-003	1.802839e+000	-6.844916e+000	5.095000e+000
4.231674173823270e-003	1.844133e+000	-6.886074e+000	5.095000e+000
4.247431556707668e-003	1.857021e+000	-6.898952e+000	5.095000e+000
4.264045287175838e-003	1.848892e+000	-6.890921e+000	5.095000e+000
4.283576537175838e-003	1.813936e+000	-6.856205e+000	5.095000e+000
4.303107787175837e-003	1.752741e+000	-6.795378e+000	5.095000e+000
4.322639037175837e-003	1.665183e+000	-6.708315e+000	5.095000e+000
4.342170287175836e-003	1.552579e+000	-6.596327e+000	5.095000e+000
4.361701537175836e-003	1.416623e+000	-6.461097e+000	5.095000e+000
4.381232787175836e-003	1.259359e+000	-6.304660e+000	5.095000e+000
4.400764037175835e-003	1.083154e+000	-6.129368e+000	5.095000e+000
4.420295287175835e-003	8.906570e-001	-5.937859e+000	5.095000e+000
4.439826537175834e-003	6.847637e-001	-5.733012e+000	5.095000e+000
4.459357787175834e-003	4.685709e-001	-5.517908e+000	5.095000e+000
4.478889037175833e-003	2.453305e-001	-5.295784e+000	5.095000e+000
4.498420287175833e-003	1.839996e-002	-5.069980e+000	5.095000e+000
4.517951537175833e-003	-2.088073e-001	-4.843892e+000	5.095000e+000
4.537482787175832e-003	-4.328738e-001	-4.620920e+000	5.095000e+000
4.557014037175832e-003	-6.504296e-001	-4.404420e+000	5.095000e+000
4.576545287175831e-003	-8.582023e-001	-4.197646e+000	5.095000e+000
4.596076537175831e-003	-1.053067e+000	-4.003709e+000	5.095000e+000
4.615607787175831e-003	-1.232092e+000	-3.825526e+000	5.095000e+000
4.635139037175830e-003	-1.392586e+000	-3.665778e+000	5.095000e+000
4.654670287175830e-003	-1.532134e+000	-3.526866e+000	5.095000e+000
4.674201537175829e-003	-1.648637e+000	-3.410880e+000	5.095000e+000
4.693732787175829e-003	-1.740343e+000	-3.319565e+000	5.095000e+000
4.713264037175828e-003	-1.805872e+000	-3.254294e+000	5.095000e+000
4.732795287175828e-003	-1.845337e+000	-3.214957e+000	5.095000e+000
4.749257041534661e-003	-1.857373e+000	-3.202924e+000	5.095000e+000
4.764723854410551e-003	-1.848587e+000	-3.211613e+000	5.095000e+000
4.784255104410551e-003	-1.812262e+000	-3.247691e+000	5.095000e+000
4.803786354410550e-003	-1.750134e+000	-3.309447e+000	5.095000e+000
4.823317604410550e-003	-1.661681e+000	-3.397400e+000	5.095000e+000
4.842848854410550e-003	-1.548235e+000	-3.510226e+000	5.095000e+000
4.862380104410549e-003	-1.411503e+000	-3.646229e+000	5.095000e+000
4.881911354410549e-003	-1.253540e+000	-3.803362e+000	5.095000e+000
4.901442604410548e-003	-1.076723e+000	-3.979263e+000	5.095000e+000
4.920973854410548e-003	-8.837103e-001	-4.171286e+000	5.095000e+000
4.940505104410548e-003	-6.774062e-001	-4.376542e+000	5.095000e+000
4.960036354410547e-003	-4.609133e-001	-4.591944e+000	5.095000e+000
4.979567604410547e-003	-2.374878e-001	-4.814253e+000	5.095000e+000
4.999098854410546e-003	-1.049031e-002	-5.040124e+000	5.095000e+000
5.018630104410546e-003	2.166650e-001	-5.266160e+000	5.095000e+000
5.038161354410545e-003	4.405614e-001	-5.488963e+000	5.095000e+000
5.057692604410545e-003	6.578314e-001	-5.705179e+000	5.095000e+000
5.077223854410545e-003	8.652071e-001	-5.911558e+000	5.095000e+000
5.096755104410544e-003	1.059569e+000	-6.104995e+000	5.095000e+000
5.116286354410544e-003	1.237994e+000	-6.282580e+000	5.095000e+000
5.135817604410543e-003	1.397799e+000	-6.441644e+000	5.095000e+000
5.155348854410543e-003	1.536579e+000	-6.579792e+000	5.095000e+000
5.174880104410543e-003	1.652248e+000	-6.694948e+000	5.095000e+000
5.194411354410542e-003	1.743066e+000	-6.785379e+000	5.095000e+000
5.213942604410542e-003	1.807666e+000	-6.849726e+000	5.095000e+000
5.233473854410541e-003	1.846022e+000	-6.887959e+000	5.095000e+000
5.250361905007093e-003	1.857342e+000	-6.899282e+000	5.095000e+000
5.265589296433447e-003	1.847714e+000	-6.889754e+000	5.095000e+000
5.285120546433446e-003	1.810082e+000	-6.852376e+000	5.095000e+000
5.304651796433446e-003	1.746764e+000	-6.789435e+000	5.095000e+000
5.324183046433445e-003	1.657173e+000	-6.700350e+000	5.095000e+000
5.343714296433445e-003	1.542656e+000	-6.586458e+000	5.095000e+000
5.363245546433445e-003	1.404937e+000	-6.449473e+000	5.095000e+000
5.382776796433444e-003	1.246086e+000	-6.291456e+000	5.095000e+000
5.402308046433444e-003	1.068493e+000	-6.114783e+000	5.095000e+000
5.421839296433443e-003	8.748287e-001	-5.922112e+000	5.095000e+000
5.441370546433443e-003	6.680062e-001	-5.716339e+000	5.095000e+000
5.460901796433442e-003	4.511362e-001	-5.500561e+000	5.095000e+000
