time	V(vin)	V(vout)	V(n001)
0.000000000000000e+000	3.430275e-007	-4.956935e+000	5.000000e+000
1.428571445265854e-008	1.704591e-004	-4.956975e+000	5.000000e+000
2.857142890531708e-008	3.400944e-004	-4.957036e+000	5.000000e+000
4.285714335797562e-008	5.092491e-004	-4.957117e+000	5.000000e+000
5.714285781063416e-008	6.779230e-004	-4.957218e+000	5.000000e+000
7.142857226329269e-008	8.461163e-004	-4.957340e+000	5.000000e+000
8.571428671595124e-008	1.013829e-003	-4.957482e+000	5.000000e+000
1.000000011686097e-007	1.181061e-003	-4.957644e+000	5.000000e+000
2.000000023372195e-007	2.352701e-003	-4.958738e+000	5.000000e+000
3.828571473312489e-006	4.484299e-002	-5.001008e+000	5.000000e+000
7.457142944287758e-006	8.722149e-002	-5.043169e+000	5.000000e+000
1.108571441526303e-005	1.294882e-001	-5.085222e+000	5.000000e+000
1.471428588623830e-005	1.716431e-001	-5.127167e+000	5.000000e+000
1.834285735721357e-005	2.136862e-001	-5.169005e+000	5.000000e+000
2.197142882818883e-005	2.556176e-001	-5.210734e+000	5.000000e+000
2.560000029916409e-005	2.974371e-001	-5.252355e+000	5.000000e+000
4.513125029916410e-005	5.190288e-001	-5.472867e+000	5.000000e+000
6.466250029916410e-005	7.331362e-001	-5.685939e+000	5.000000e+000
8.419375029916411e-005	9.362166e-001	-5.888047e+000	5.000000e+000
1.037250002991641e-004	1.125215e+000	-6.076149e+000	5.000000e+000
1.232562502991641e-004	1.297290e+000	-6.247418e+000	5.000000e+000
1.427875002991641e-004	1.449852e+000	-6.399277e+000	5.000000e+000
1.623187502991641e-004	1.580607e+000	-6.529441e+000	5.000000e+000
1.818500002991641e-004	1.687588e+000	-6.635954e+000	5.000000e+000
2.013812502991641e-004	1.769186e+000	-6.717212e+000	5.000000e+000
2.209125002991641e-004	1.824175e+000	-6.771995e+000	5.000000e+000
2.404437502991640e-004	1.851725e+000	-6.799477e+000	5.000000e+000
2.599750002991640e-004	1.851425e+000	-6.799245e+000	5.000000e+000
2.795062502991641e-004	1.823277e+000	-6.771304e+000	5.000000e+000
2.990375002991641e-004	1.767705e+000	-6.716073e+000	5.000000e+000
3.185687502991641e-004	1.685545e+000	-6.634383e+000	5.000000e+000
3.381000002991641e-004	1.578033e+000	-6.527462e+000	5.000000e+000
3.576312502991641e-004	1.446786e+000	-6.396919e+000	5.000000e+000
3.771625002991641e-004	1.293778e+000	-6.244718e+000	5.000000e+000
3.966937502991642e-004	1.121311e+000	-6.073146e+000	5.000000e+000
4.162250002991642e-004	9.319776e-001	-5.884787e+000	5.000000e+000
4.357562502991642e-004	7.286267e-001	-5.682471e+000	5.000000e+000
4.552875002991642e-004	5.143165e-001	-5.469242e+000	5.000000e+000
4.748187502991642e-004	2.922706e-001	-5.248308e+000	5.000000e+000
4.943500002991642e-004	6.582861e-002	-5.022992e+000	5.000000e+000
5.138812502991642e-004	-1.616035e-001	-4.796681e+000	5.000000e+000
5.334125002991642e-004	-3.866049e-001	-4.572782e+000	5.000000e+000
5.529437502991642e-004	-6.057914e-001	-4.354661e+000	5.000000e+000
5.724750002991643e-004	-8.158662e-001	-4.145597e+000	5.000000e+000
5.920062502991643e-004	-1.013670e+000	-3.948738e+000	5.000000e+000
6.115375002991643e-004	-1.196227e+000	-3.767043e+000	5.000000e+000
6.310687502991643e-004	-1.360791e+000	-3.603244e+000	5.000000e+000
6.506000002991643e-004	-1.504888e+000	-3.459807e+000	5.000000e+000
6.701312502991643e-004	-1.626350e+000	-3.338887e+000	5.000000e+000
6.896625002991644e-004	-1.723350e+000	-3.242305e+000	5.000000e+000
7.091937502991644e-004	-1.794430e+000	-3.171512e+000	5.000000e+000
7.287250002991644e-004	-1.839744e+000	-3.126355e+000	5.000000e+000
7.448206086292526e-004	-1.855691e+000	-3.110431e+000	5.000000e+000
7.630743418223780e-004	-1.849267e+000	-3.116760e+000	5.000000e+000
7.826055918223780e-004	-1.816271e+000	-3.149526e+000	5.000000e+000
8.021368418223780e-004	-1.756414e+000	-3.209022e+000	5.000000e+000
8.216680918223781e-004	-1.670139e+000	-3.294808e+000	5.000000e+000
8.411993418223781e-004	-1.558743e+000	-3.405594e+000	5.000000e+000
8.607305918223781e-004	-1.423902e+000	-3.539713e+000	5.000000e+000
8.802618418223781e-004	-1.267645e+000	-3.695149e+000	5.000000e+000
8.997930918223781e-004	-1.092321e+000	-3.869564e+000	5.000000e+000
9.193243418223781e-004	-9.005671e-001	-4.060333e+000	5.000000e+000
9.388555918223782e-004	-6.952681e-001	-4.264589e+000	5.000000e+000
9.583868418223782e-004	-4.795116e-001	-4.479258e+000	5.000000e+000
9.779180918223782e-004	-2.565428e-001	-4.701111e+000	5.000000e+000
9.974493418223782e-004	-2.971538e-002	-4.926812e+000	5.000000e+000
1.016980591822378e-003	1.975590e-001	-5.152966e+000	5.000000e+000
1.036511841822378e-003	4.218619e-001	-5.376173e+000	5.000000e+000
1.056043091822378e-003	6.398197e-001	-5.593072e+000	5.000000e+000
1.075574341822378e-003	8.481539e-001	-5.800405e+000	5.000000e+000
1.095105591822378e-003	1.043731e+000	-5.995050e+000	5.000000e+000
1.114636841822378e-003	1.223610e+000	-6.174081e+000	5.000000e+000
1.134168091822378e-003	1.385084e+000	-6.334805e+000	5.000000e+000
1.153699341822378e-003	1.525725e+000	-6.474805e+000	5.000000e+000
1.173230591822378e-003	1.643418e+000	-6.591975e+000	5.000000e+000
1.192761841822378e-003	1.736393e+000	-6.684552e+000	5.000000e+000
1.212293091822378e-003	1.803250e+000	-6.751144e+000	5.000000e+000
1.231824341822378e-003	1.844300e+000	-6.792058e+000	5.000000e+000
1.247676074985977e-003	1.857080e+000	-6.804831e+000	5.000000e+000
1.264136188250303e-003	1.848853e+000	-6.796701e+000	5.000000e+000
1.283667438250303e-003	1.813714e+000	-6.761803e+000	5.000000e+000
1.303198688250303e-003	1.752393e+000	-6.700851e+000	5.000000e+000
1.322729938250303e-003	1.664715e+000	-6.613669e+000	5.000000e+000
1.342261188250303e-003	1.551999e+000	-6.501568e+000	5.000000e+000
1.361792438250303e-003	1.415938e+000	-6.366235e+000	5.000000e+000
1.381323688250303e-003	1.258581e+000	-6.209704e+000	5.000000e+000
1.400854938250303e-003	1.082294e+000	-6.034330e+000	5.000000e+000
1.420386188250303e-003	8.897275e-001	-5.842752e+000	5.000000e+000
1.439917438250303e-003	6.837789e-001	-5.637850e+000	5.000000e+000
1.459448688250303e-003	4.675457e-001	-5.422707e+000	5.000000e+000
1.478979938250303e-003	2.442802e-001	-5.200557e+000	5.000000e+000
1.498511188250303e-003	1.734048e-002	-4.974744e+000	5.000000e+000
1.518042438250303e-003	-2.098600e-001	-4.748662e+000	5.000000e+000
1.537573688250303e-003	-4.339041e-001	-4.525713e+000	5.000000e+000
1.557104938250303e-003	-6.514218e-001	-4.309250e+000	5.000000e+000
1.576636188250303e-003	-8.591415e-001	-4.102530e+000	5.000000e+000
1.596167438250303e-003	-1.053939e+000	-3.908659e+000	5.000000e+000
1.615698688250303e-003	-1.232884e+000	-3.730556e+000	5.000000e+000
1.635229938250303e-003	-1.393286e+000	-3.570899e+000	5.000000e+000
1.654761188250303e-003	-1.532731e+000	-3.432090e+000	5.000000e+000
1.674292438250303e-003	-1.649122e+000	-3.316215e+000	5.000000e+000
1.693823688250303e-003	-1.740709e+000	-3.225019e+000	5.000000e+000
1.713354938250303e-003	-1.806114e+000	-3.159871e+000	5.000000e+000
1.732886188250303e-003	-1.845431e+000	-3.120682e+000	5.000000e+000
1.749405051094904e-003	-1.857393e+000	-3.108722e+000	5.000000e+000
1.764778867646190e-003	-1.848561e+000	-3.117457e+000	5.000000e+000
1.784310117646190e-003	-1.812125e+000	-3.153645e+000	5.000000e+000
1.803841367646190e-003	-1.749921e+000	-3.215477e+000	5.000000e+000
1.823372617646190e-003	-1.661396e+000	-3.303502e+000	5.000000e+000
1.842903867646190e-003	-1.547882e+000	-3.416396e+000	5.000000e+000
1.862435117646190e-003	-1.411087e+000	-3.552461e+000	5.000000e+000
1.881966367646190e-003	-1.253067e+000	-3.709651e+000	5.000000e+000
1.901497617646190e-003	-1.076200e+000	-3.885601e+000	5.000000e+000
1.921028867646190e-003	-8.831464e-001	-4.077665e+000	5.000000e+000
1.940560117646190e-003	-6.768092e-001	-4.282954e+000	5.000000e+000
1.960091367646190e-003	-4.602922e-001	-4.498380e+000	5.000000e+000
1.979622617646190e-003	-2.368519e-001	-4.720704e+000	5.000000e+000
1.999153867646190e-003	-9.849105e-003	-4.946580e+000	5.000000e+000
2.018685117646190e-003	2.173018e-001	-5.172612e+000	5.000000e+000
2.038216367646190e-003	4.411843e-001	-5.395401e+000	5.000000e+000
2.057747617646190e-003	6.584310e-001	-5.611594e+000	5.000000e+000
2.077278867646190e-003	8.657743e-001	-5.817941e+000	5.000000e+000
2.096810117646190e-003	1.060095e+000	-6.011337e+000	5.000000e+000
2.116341367646190e-003	1.238472e+000	-6.188874e+000	5.000000e+000
2.135872617646190e-003	1.398221e+000	-6.347882e+000	5.000000e+000
2.155403867646190e-003	1.536939e+000	-6.485969e+000	5.000000e+000
2.174935117646190e-003	1.652540e+000	-6.601057e+000	5.000000e+000
2.194466367646190e-003	1.743285e+000	-6.691416e+000	5.000000e+000
2.213997617646190e-003	1.807810e+000	-6.755687e+000	5.000000e+000
2.233528867646190e-003	1.846076e+000	-6.793831e+000	5.000000e+000
2.250451477803203e-003	1.857313e+000	-6.805071e+000	5.000000e+000
2.265735149292713e-003	1.847526e+000	-6.795387e+000	5.000000e+000
2.285266399292713e-003	1.809709e+000	-6.757823e+000	5.000000e+000
2.304797649292713e-003	1.746191e+000	-6.694684e+000	5.000000e+000
2.324328899292713e-003	1.656408e+000	-6.605408e+000	5.000000e+000
2.343860149292713e-003	1.541712e+000	-6.491337e+000	5.000000e+000
2.363391399292713e-003	1.403826e+000	-6.354187e+000	5.000000e+000
2.382922649292713e-003	1.244826e+000	-6.196021e+000	5.000000e+000
2.402453899292713e-003	1.067103e+000	-6.019218e+000	5.000000e+000
2.421985149292713e-003	8.733292e-001	-5.826437e+000	5.000000e+000
2.441516399292713e-003	6.664199e-001	-5.620579e+000	5.000000e+000
2.461047649292713e-003	4.494870e-001	-5.404738e+000	5.000000e+000
2.480578899292713e-003	2.257934e-001	-5.182162e+000	5.000000e+000
2.519641399292714e-003	-2.283666e-001	-4.730247e+000	5.000000e+000
2.539172649292714e-003	-4.520019e-001	-4.507704e+000	5.000000e+000
2.558703899292714e-003	-6.688387e-001	-4.291918e+000	5.000000e+000
2.578235149292714e-003	-8.756157e-001	-4.086134e+000	5.000000e+000
2.597766399292714e-003	-1.069222e+000	-3.893448e+000	5.000000e+000
2.617297649292714e-003	-1.246747e+000	-3.716758e+000	5.000000e+000
2.636828899292714e-003	-1.405520e+000	-3.558722e+000	5.000000e+000
2.656360149292714e-003	-1.543152e+000	-3.421716e+000	5.000000e+000
2.675891399292714e-003	-1.657573e+000	-3.307801e+000	5.000000e+000
2.695422649292714e-003	-1.747064e+000	-3.218690e+000	5.000000e+000
2.714953899292714e-003	-1.810276e+000	-3.155725e+000	5.000000e+000
2.734485149292714e-003	-1.846979e+000	-3.119136e+000	5.000000e+000
2.752008459549084e-003	-1.856688e+000	-3.109414e+000	5.000000e+000
2.768270378407419e-003	-1.844024e+000	-3.121960e+000	5.000000e+000
2.787801628407419e-003	-1.802984e+000	-3.162729e+000	5.000000e+000
2.807332878407419e-003	-1.735994e+000	-3.229323e+000	5.000000e+000
2.826864128407419e-003	-1.642893e+000	-3.321902e+000	5.000000e+000
2.846395378407419e-003	-1.525082e+000	-3.439074e+000	5.000000e+000
2.865926628407419e-003	-1.384332e+000	-3.579075e+000	5.000000e+000
2.885457878407419e-003	-1.222760e+000	-3.739800e+000	5.000000e+000
2.904989128407419e-003	-1.042796e+000	-3.918833e+000	5.000000e+000
2.924520378407419e-003	-8.471484e-001	-4.113480e+000	5.000000e+000
2.944051628407420e-003	-6.387585e-001	-4.320812e+000	5.000000e+000
2.963582878407420e-003	-4.207611e-001	-4.537713e+000	5.000000e+000
2.983114128407420e-003	-1.964351e-001	-4.760920e+000	5.000000e+000
3.002645378407420e-003	3.084554e-002	-4.987074e+000	5.000000e+000
3.022176628407420e-003	2.576622e-001	-5.212775e+000	5.000000e+000
3.041707878407420e-003	4.806034e-001	-5.434628e+000	5.000000e+000
3.061239128407420e-003	6.963159e-001	-5.649296e+000	5.000000e+000
3.080770378407420e-003	9.015552e-001	-5.853551e+000	5.000000e+000
3.100301628407420e-003	1.093234e+000	-6.044319e+000	5.000000e+000
3.119832878407420e-003	1.268470e+000	-6.218732e+000	5.000000e+000
3.139364128407420e-003	1.424627e+000	-6.374166e+000	5.000000e+000
3.158895378407420e-003	1.559356e+000	-6.508285e+000	5.000000e+000
3.178426628407420e-003	1.670631e+000	-6.619069e+000	5.000000e+000
3.197957878407420e-003	1.756778e+000	-6.704854e+000	5.000000e+000
3.217489128407420e-003	1.816501e+000	-6.764348e+000	5.000000e+000
3.237020378407420e-003	1.848903e+000	-6.796657e+000	5.000000e+000
3.256551628407420e-003	1.853644e+000	-6.801442e+000	5.000000e+000
3.275666975425134e-003	1.831142e+000	-6.779118e+000	5.000000e+000
3.295198225425134e-003	1.780760e+000	-6.729051e+000	5.000000e+000
3.314729475425134e-003	1.703742e+000	-6.652477e+000	5.000000e+000
3.334260725425134e-003	1.601097e+000	-6.550401e+000	5.000000e+000
3.353791975425134e-003	1.474371e+000	-6.424357e+000	5.000000e+000
3.373323225425134e-003	1.325469e+000	-6.276242e+000	5.000000e+000
3.392854475425134e-003	1.156630e+000	-6.108283e+000	5.000000e+000
3.412385725425134e-003	9.703948e-001	-5.923007e+000	5.000000e+000
3.431916975425134e-003	7.695639e-001	-5.723200e+000	5.000000e+000
3.451448225425134e-003	5.571580e-001	-5.511868e+000	5.000000e+000
3.470979475425134e-003	3.363719e-001	-5.292190e+000	5.000000e+000
3.490510725425134e-003	1.105265e-001	-5.067468e+000	5.000000e+000
3.510041975425134e-003	-1.169814e-001	-4.841084e+000	5.000000e+000
3.529573225425134e-003	-3.427297e-001	-4.616443e+000	5.000000e+000
3.549104475425134e-003	-5.633230e-001	-4.396923e+000	5.000000e+000
3.568635725425134e-003	-7.754434e-001	-4.185826e+000	5.000000e+000
3.588166975425134e-003	-9.759005e-001	-3.986328e+000	5.000000e+000
3.607698225425134e-003	-1.161679e+000	-3.801428e+000	5.000000e+000
3.627229475425134e-003	-1.329985e+000	-3.633908e+000	5.000000e+000
3.646760725425134e-003	-1.478287e+000	-3.486288e+000	5.000000e+000
3.666291975425134e-003	-1.604353e+000	-3.360787e+000	5.000000e+000
3.685823225425134e-003	-1.706289e+000	-3.259294e+000	5.000000e+000
3.705354475425134e-003	-1.782561e+000	-3.183335e+000	5.000000e+000
3.724885725425134e-003	-1.832021e+000	-3.134053e+000	5.000000e+000
3.744416975425134e-003	-1.854293e+000	-3.111824e+000	5.000000e+000
3.762924173823277e-003	-1.849320e+000	-3.116708e+000	5.000000e+000
3.782455423823277e-003	-1.816627e+000	-3.149173e+000	5.000000e+000
3.801986673823277e-003	-1.756976e+000	-3.208462e+000	5.000000e+000
3.821517923823277e-003	-1.670900e+000	-3.294051e+000	5.000000e+000
3.841049173823277e-003	-1.559691e+000	-3.404651e+000	5.000000e+000
3.860580423823277e-003	-1.425024e+000	-3.538598e+000	5.000000e+000
3.880111673823277e-003	-1.268922e+000	-3.693879e+000	5.000000e+000
3.899642923823277e-003	-1.093735e+000	-3.868157e+000	5.000000e+000
3.919174173823277e-003	-9.020969e-001	-4.058811e+000	5.000000e+000
3.938705423823277e-003	-6.968905e-001	-4.262974e+000	5.000000e+000
3.958236673823276e-003	-4.812022e-001	-4.477575e+000	5.000000e+000
3.977767923823276e-003	-2.582762e-001	-4.699386e+000	5.000000e+000
3.997299173823275e-003	-3.146546e-002	-4.925071e+000	5.000000e+000
4.016830423823275e-003	1.958186e-001	-5.151235e+000	5.000000e+000
4.036361673823275e-003	4.201573e-001	-5.374476e+000	5.000000e+000
4.055892923823274e-003	6.381764e-001	-5.591437e+000	5.000000e+000
4.075424173823274e-003	8.465968e-001	-5.798855e+000	5.000000e+000
4.094955423823273e-003	1.042284e+000	-5.993609e+000	5.000000e+000
4.114486673823273e-003	1.222294e+000	-6.172771e+000	5.000000e+000
4.134017923823273e-003	1.383919e+000	-6.333646e+000	5.000000e+000
4.153549173823272e-003	1.524729e+000	-6.473814e+000	5.000000e+000
4.173080423823272e-003	1.642606e+000	-6.591166e+000	5.000000e+000
4.192611673823271e-003	1.735776e+000	-6.683938e+000	5.000000e+000
4.212142923823271e-003	1.802839e+000	-6.750734e+000	5.000000e+000
4.231674173823270e-003	1.844133e+000	-6.791892e+000	5.000000e+000
4.247431556707668e-003	1.857021e+000	-6.804770e+000	5.000000e+000
4.264045287175838e-003	1.848892e+000	-6.796739e+000	5.000000e+000
4.283576537175838e-003	1.813936e+000	-6.762023e+000	5.000000e+000
4.303107787175837e-003	1.752741e+000	-6.701196e+000	5.000000e+000
4.322639037175837e-003	1.665183e+000	-6.614133e+000	5.000000e+000
4.342170287175836e-003	1.552579e+000	-6.502145e+000	5.000000e+000
4.361701537175836e-003	1.416623e+000	-6.366915e+000	5.000000e+000
4.381232787175836e-003	1.259359e+000	-6.210478e+000	5.000000e+000
4.400764037175835e-003	1.083154e+000	-6.035187e+000	5.000000e+000
4.420295287175835e-003	8.906570e-001	-5.843677e+000	5.000000e+000
4.439826537175834e-003	6.847637e-001	-5.638830e+000	5.000000e+000
4.459357787175834e-003	4.685709e-001	-5.423727e+000	5.000000e+000
4.478889037175833e-003	2.453305e-001	-5.201602e+000	5.000000e+000
4.498420287175833e-003	1.839996e-002	-4.975798e+000	5.000000e+000
4.517951537175833e-003	-2.088073e-001	-4.749710e+000	5.000000e+000
4.537482787175832e-003	-4.328739e-001	-4.526738e+000	5.000000e+000
4.557014037175832e-003	-6.504296e-001	-4.310238e+000	5.000000e+000
4.576545287175831e-003	-8.582023e-001	-4.103464e+000	5.000000e+000
4.596076537175831e-003	-1.053067e+000	-3.909528e+000	5.000000e+000
4.615607787175831e-003	-1.232092e+000	-3.731345e+000	5.000000e+000
4.635139037175830e-003	-1.392586e+000	-3.571596e+000	5.000000e+000
4.654670287175830e-003	-1.532134e+000	-3.432684e+000	5.000000e+000
4.674201537175829e-003	-1.648637e+000	-3.316699e+000	5.000000e+000
4.693732787175829e-003	-1.740343e+000	-3.225383e+000	5.000000e+000
4.713264037175828e-003	-1.805872e+000	-3.160112e+000	5.000000e+000
4.732795287175828e-003	-1.845337e+000	-3.120776e+000	5.000000e+000
4.749257041534661e-003	-1.857373e+000	-3.108742e+000	5.000000e+000
4.764723854410551e-003	-1.848587e+000	-3.117431e+000	5.000000e+000
4.784255104410551e-003	-1.812262e+000	-3.153509e+000	5.000000e+000
4.803786354410550e-003	-1.750134e+000	-3.215266e+000	5.000000e+000
4.823317604410550e-003	-1.661681e+000	-3.303218e+000	5.000000e+000
4.842848854410550e-003	-1.548235e+000	-3.416044e+000	5.000000e+000
4.862380104410549e-003	-1.411503e+000	-3.552047e+000	5.000000e+000
4.881911354410549e-003	-1.253540e+000	-3.709181e+000	5.000000e+000
4.901442604410548e-003	-1.076723e+000	-3.885082e+000	5.000000e+000
4.920973854410548e-003	-8.837103e-001	-4.077104e+000	5.000000e+000
4.940505104410548e-003	-6.774062e-001	-4.282360e+000	5.000000e+000
4.960036354410547e-003	-4.609133e-001	-4.497762e+000	5.000000e+000
4.979567604410547e-003	-2.374878e-001	-4.720071e+000	5.000000e+000
4.999098854410546e-003	-1.049032e-002	-4.945942e+000	5.000000e+000
5.018630104410546e-003	2.166650e-001	-5.171979e+000	5.000000e+000
5.038161354410545e-003	4.405614e-001	-5.394781e+000	5.000000e+000
5.057692604410545e-003	6.578314e-001	-5.610997e+000	5.000000e+000
5.077223854410545e-003	8.652071e-001	-5.817376e+000	5.000000e+000
5.096755104410544e-003	1.059569e+000	-6.010813e+000	5.000000e+000
5.116286354410544e-003	1.237994e+000	-6.188399e+000	5.000000e+000
5.135817604410543e-003	1.397799e+000	-6.347462e+000	5.000000e+000
5.155348854410543e-003	1.536579e+000	-6.485611e+000	5.000000e+000
5.174880104410543e-003	1.652248e+000	-6.600767e+000	5.000000e+000
5.194411354410542e-003	1.743066e+000	-6.691197e+000	5.000000e+000
5.213942604410542e-003	1.807666e+000	-6.755544e+000	5.000000e+000
5.233473854410541e-003	1.846022e+000	-6.793777e+000	5.000000e+000
5.250361905007093e-003	1.857342e+000	-6.805101e+000	5.000000e+000
5.265589296433447e-003	1.847714e+000	-6.795572e+000	5.000000e+000
5.285120546433446e-003	1.810082e+000	-6.758193e+000	5.000000e+000
5.304651796433446e-003	1.746764e+000	-6.695254e+000	5.000000e+000
5.324183046433445e-003	1.657173e+000	-6.606168e+000	5.000000e+000
5.343714296433445e-003	1.542656e+000	-6.492276e+000	5.000000e+000
5.363245546433445e-003	1.404937e+000	-6.355292e+000	5.000000e+000
5.382776796433444e-003	1.246086e+000	-6.197274e+000	5.000000e+000
5.402308046433444e-003	1.068493e+000	-6.020601e+000	5.000000e+000
5.421839296433443e-003	8.748287e-001	-5.827929e+000	5.000000e+000
5.441370546433443e-003	6.680062e-001	-5.622157e+000	5.000000e+000
5.460901796433442e-003	4.511362e-001	-5.406379e+000	5.000000e+000
