t	vin	vout
-1.81071402	0.00427259	0.68666640
-1.77071403	-0.01324503	0.68666640
-1.73071403	-0.01324503	0.68666640
-1.69071403	-0.01324503	0.68666640
-1.65071403	0.00427259	0.68666640
-1.61071403	-0.01324503	0.68666640
-1.57071403	-0.01324503	0.68666640
-1.53071403	-0.01324503	0.68666640
-1.49071403	-0.01324503	0.68666640
-1.45071403	0.00427259	0.68666640
-1.41071403	-0.01324503	-3.75377700
-1.37071403	-0.01324503	0.68666640
-1.33071403	-0.01324503	-3.75377700
-1.29071403	-0.01324503	0.68666640
-1.25071403	-0.01324503	-3.75377700
-1.21071403	-0.01324503	0.68666640
-1.17071403	-0.01324503	0.68666640
-1.13071403	-0.01324503	0.68666640
-1.09071403	-0.01324503	-3.75377700
-1.05071403	0.00427259	0.68666640
-1.01071403	0.00427259	0.68666640
-0.97071403	-0.01324503	-3.75377700
-0.93071403	-0.01324503	0.68666640
-0.89071403	0.00427259	0.68666640
-0.85071403	-0.01324503	0.68666640
-0.81071403	-0.01324503	0.68666640
-0.77071403	-0.01324503	0.68666640
-0.73071403	-0.01324503	0.68666640
-0.69071403	-0.01324503	0.68666640
-0.65071403	-0.01324503	0.68666640
-0.61071403	-0.01324503	0.68666640
-0.57071403	-0.01324503	0.68666640
-0.53071403	-0.01324503	0.68666640
-0.49071403	-0.01324503	0.68666640
-0.45071403	-0.01324503	0.68666640
-0.41071403	-0.01324503	0.68666640
-0.37071403	-0.01324503	-3.75377700
-0.33071403	-0.01324503	0.68666640
-0.29071403	0.00427259	0.68666640
-0.25071403	-0.01324503	0.68666640
-0.21071403	-0.01324503	-3.75377700
-0.17071403	0.00427259	0.68666640
-0.13071404	0.00427259	0.68666640
-0.09071404	0.03930784	0.68666640
-0.05071404	0.05682547	0.68666640
-0.01071404	0.07434309	0.68666640
0.02928596	0.10937830	0.68666640
0.06928596	0.12689600	0.68666640
0.10928596	0.17950990	0.68666640
0.14928596	0.21454510	0.68666640
0.18928596	0.24958040	5.12711000
0.22928596	0.28467670	0.68666640
0.26928596	0.31971190	5.12711000
0.30928596	0.35474720	5.12711000
0.34928596	0.38984350	5.12711000
0.38928596	0.40736110	5.12711000
0.42928596	0.45991390	5.12711000
0.46928596	0.47743160	9.55229400
0.50928596	0.49501030	9.55229400
0.54928596	0.53004550	13.99274000
0.58928596	0.54756310	13.99274000
0.62928596	0.56508080	13.99274000
0.66928596	0.58259840	18.43318000
0.70928596	0.60017700	18.43318000
0.74928596	0.61769470	18.43318000
0.78928596	0.65272990	22.87362000
0.82928596	0.67024760	22.87362000
0.86928596	0.67024760	27.29881000
0.90928596	0.68776520	27.29881000
0.94928596	0.70528270	27.29881000
0.98928596	0.72286140	31.72399000
1.02928596	0.74037910	31.72399000
1.06928596	0.74037910	31.72399000
1.10928596	0.75789670	36.16443000
1.14928596	0.77541430	36.16443000
1.18928596	0.79293190	40.60488000
1.22928596	0.79293190	45.04532000
1.26928596	0.81044960	40.60488000
1.30928596	0.81044960	45.04532000
1.34928596	0.82802830	49.47050000
1.38928596	0.84554580	49.47050000
1.42928596	0.84554580	49.47050000
1.46928596	0.84554580	53.91095000
1.50928595	0.84554580	58.35139000
1.54928595	0.88058110	58.35139000
1.58928595	0.88058110	58.35139000
1.62928595	0.88058110	62.79184000
1.66928595	0.88058110	67.21702000
1.70928595	0.89809870	67.21702000
1.74928595	0.89809870	67.21702000
1.78928595	0.91561640	76.09790000
1.82928595	0.91561640	71.65746000
1.86928595	0.91561640	76.09790000
1.90928595	0.91561640	80.53835000
1.94928595	0.91561640	76.09790000
1.98928595	0.93313400	80.53835000
2.02928595	0.93313400	84.96352000
2.06928595	0.95071260	84.96352000
2.10928595	0.95071260	89.40398000
2.14928595	0.95071260	89.40398000
2.18928595	0.95071260	93.84441000
2.22928595	0.95071260	98.28486000
2.26928595	0.95071260	98.28486000
2.30928595	0.95071260	102.72530000
2.34928595	0.95071260	102.72530000
2.38928595	0.95071260	102.72530000
2.42928595	0.95071260	107.15050000
2.46928595	0.95071260	107.15050000
2.50928595	0.95071260	111.59090000
2.54928595	0.96823030	111.59090000
2.58928595	0.96823030	116.03140000
2.62928595	0.96823030	116.03140000
2.66928595	0.96823030	116.03140000
2.70928595	0.95071260	120.47180000
2.74928595	0.96823030	124.89700000
2.78928595	0.96823030	120.47180000
2.82928595	0.96823030	129.33740000
2.86928595	0.96823030	129.33740000
2.90928595	0.96823030	133.77790000
2.94928595	0.96823030	129.33740000
2.98928595	0.96823030	133.77790000
3.02928595	0.96823030	138.21830000
3.06928595	0.96823030	138.21830000
3.10928595	0.98574790	124.89700000
3.14928594	0.96823030	138.21830000
3.18928594	0.96823030	138.21830000
3.22928594	0.96823030	116.03140000
3.26928594	0.96823030	147.08400000
3.30928594	0.96823030	147.08400000
3.34928594	0.98574790	138.21830000
3.38928594	0.96823030	155.96480000
3.42928594	0.96823030	155.96480000
3.46928594	0.96823030	155.96480000
3.50928594	0.96823030	155.96480000
3.54928594	0.96823030	164.83050000
3.58928594	0.96823030	160.39000000
3.62928594	0.96823030	164.83050000
3.66928594	0.96823030	164.83050000
3.70928594	0.96823030	169.27090000
3.74928594	0.96823030	169.27090000
3.78928594	0.96823030	173.71130000
3.82928594	0.96823030	169.27090000
3.86928594	0.96823030	173.71130000
3.90928594	0.96823030	173.71130000
3.94928594	0.96823030	178.15180000
3.98928594	0.96823030	178.15180000
4.02928594	0.96823030	178.15180000
4.06928594	0.96823030	182.57700000
4.10928594	0.96823030	182.57700000
4.14928594	0.96823030	182.57700000
4.18928594	0.96823030	182.57700000
4.22928594	0.96823030	187.01740000
4.26928594	0.96823030	187.01740000
4.30928594	0.96823030	187.01740000
4.34928594	0.96823030	191.45790000
4.38928594	0.96823030	195.89830000
4.42928594	0.96823030	191.45790000
4.46928594	0.96823030	195.89830000
4.50928594	0.96823030	195.89830000
4.54928594	0.96823030	200.32350000
4.58928594	0.96823030	200.32350000
4.62928594	0.96823030	200.32350000
4.66928594	0.96823030	200.32350000
4.70928594	0.96823030	204.76390000
4.74928594	0.96823030	204.76390000
4.78928593	0.96823030	209.20440000
4.82928593	0.96823030	209.20440000
4.86928593	0.96823030	209.20440000
4.90928593	0.96823030	209.20440000
4.94928593	0.96823030	213.64480000
4.98928593	0.96823030	213.64480000
5.02928593	0.96823030	213.64480000
5.06928593	0.96823030	218.07000000
5.10928593	0.96823030	213.64480000
5.14928593	0.96823030	218.07000000
5.18928593	0.96823030	218.07000000
5.22928593	0.96823030	218.07000000
5.26928593	0.96823030	222.51040000
5.30928593	0.96823030	222.51040000
5.34928593	0.96823030	222.51040000
5.38928593	0.96823030	226.95090000
5.42928593	0.96823030	226.95090000
5.46928593	0.96823030	226.95090000
5.50928593	0.96823030	226.95090000
5.54928593	0.96823030	231.39130000
5.58928593	0.96823030	231.39130000
5.62928593	0.96823030	231.39130000
5.66928593	0.96823030	235.81650000
5.70928593	0.96823030	235.81650000
5.74928593	0.96823030	235.81650000
5.78928593	0.96823030	235.81650000
5.82928593	0.96823030	235.81650000
5.86928593	0.96823030	240.25700000
5.90928593	0.96823030	240.25700000
5.94928593	0.96823030	235.81650000
5.98928593	0.96823030	244.69740000
6.02928593	0.96823030	240.25700000
6.06928593	0.96823030	244.69740000
6.10928593	0.96823030	244.69740000
6.14928593	0.96823030	249.13780000
6.18928593	0.96823030	244.69740000
6.22928593	0.96823030	244.69740000
6.26928593	0.96823030	244.69740000
6.30928593	0.96823030	249.13780000
6.34928593	0.96823030	249.13780000
6.38928593	0.96823030	249.13780000
6.42928592	0.96823030	253.57830000
6.46928592	0.98574790	253.57830000
6.50928592	0.96823030	253.57830000
6.54928592	0.96823030	253.57830000
6.58928592	0.96823030	253.57830000
6.62928592	0.98574790	258.00350000
6.66928592	0.96823030	258.00350000
6.70928592	0.96823030	258.00350000
6.74928592	0.98574790	258.00350000
6.78928592	0.96823030	262.44390000
6.82928592	0.96823030	262.44390000
6.86928592	0.96823030	262.44390000
6.90928592	0.96823030	262.44390000
6.94928592	0.96823030	262.44390000
6.98928592	0.96823030	262.44390000
7.02928592	0.96823030	266.88440000
7.06928592	0.96823030	266.88440000
7.10928592	0.96823030	262.44390000
7.14928592	0.96823030	271.32480000
7.18928592	0.96823030	266.88440000
7.22928592	0.96823030	271.32480000
7.26928592	0.96823030	271.32480000
7.30928592	0.96823030	271.32480000
7.34928592	0.96823030	271.32480000
7.38928592	0.98574790	271.32480000
7.42928592	0.96823030	271.32480000
7.46928592	0.96823030	275.75000000
7.50928592	0.96823030	275.75000000
7.54928592	0.96823030	275.75000000
7.58928592	0.96823030	275.75000000
7.62928592	0.96823030	275.75000000
7.66928592	0.96823030	275.75000000
7.70928592	0.96823030	280.19040000
7.74928592	0.96823030	280.19040000
7.78928592	0.96823030	280.19040000
7.82928592	0.96823030	280.19040000
7.86928592	0.96823030	280.19040000
7.90928592	0.96823030	284.63090000
7.94928592	0.96823030	280.19040000
7.98928592	0.96823030	280.19040000
8.02928592	0.96823030	275.75000000
8.06928592	0.96823030	284.63090000
8.10928591	0.96823030	271.32480000
8.14928591	0.96823030	289.07130000
8.18928591	0.96823030	284.63090000
8.22928591	0.96823030	280.19040000
8.26928591	0.96823030	289.07130000
8.30928591	0.96823030	284.63090000
8.34928591	0.96823030	284.63090000
8.38928591	0.96823030	289.07130000
8.42928591	0.96823030	289.07130000
8.46928591	0.96823030	289.07130000
8.50928591	0.98574790	284.63090000
8.54928591	0.96823030	289.07130000
8.58928591	0.96823030	293.49650000
8.62928591	0.96823030	289.07130000
8.66928591	0.96823030	293.49650000
8.70928591	0.96823030	289.07130000
8.74928591	0.96823030	293.49650000
8.78928591	0.98574790	293.49650000
8.82928591	0.96823030	293.49650000
8.86928591	0.96823030	293.49650000
8.90928591	0.96823030	293.49650000
8.94928591	0.96823030	293.49650000
8.98928591	0.96823030	293.49650000
9.02928591	0.96823030	297.93700000
9.06928591	0.96823030	293.49650000
9.10928591	0.98574790	289.07130000
9.14928591	0.96823030	297.93700000
9.18928591	0.96823030	293.49650000
9.22928591	0.96823030	297.93700000
9.26928591	0.98574790	297.93700000
9.30928591	0.96823030	297.93700000
9.34928591	0.98574790	297.93700000
9.38928591	0.96823030	297.93700000
9.42928591	0.98574790	297.93700000
9.46928591	0.98574790	297.93700000
9.50928591	0.96823030	297.93700000
9.54928591	0.98574790	297.93700000
9.58928591	0.96823030	297.93700000
9.62928591	0.96823030	302.37740000
9.66928591	0.98574790	297.93700000
9.70928591	0.98574790	302.37740000
9.74928590	0.98574790	302.37740000
9.78928590	0.96823030	302.37740000
9.82928590	0.96823030	302.37740000
9.86928590	0.96823030	302.37740000
9.90928590	0.96823030	302.37740000
9.94928590	0.96823030	302.37740000
9.98928590	0.96823030	302.37740000
10.02928590	0.98574790	302.37740000
10.06928590	0.98574790	306.81780000
10.10928590	0.98574790	302.37740000
10.14928590	0.96823030	302.37740000
10.18928590	0.96823030	306.81780000
10.22928590	0.96823030	302.37740000
10.26928590	0.96823030	306.81780000
10.30928590	0.96823030	302.37740000
10.34928590	0.96823030	306.81780000
10.38928590	0.96823030	302.37740000
10.42928590	0.96823030	306.81780000
10.46928590	0.96823030	306.81780000
10.50928590	0.96823030	306.81780000
10.54928590	0.96823030	306.81780000
10.58928590	0.96823030	302.37740000
10.62928590	0.96823030	306.81780000
10.66928590	0.96823030	306.81780000
10.70928590	0.98574790	306.81780000
10.74928590	0.98574790	306.81780000
10.78928590	0.96823030	306.81780000
10.82928590	0.96823030	306.81780000
10.86928590	0.96823030	306.81780000
10.90928590	0.96823030	306.81780000
10.94928590	0.96823030	306.81780000
10.98928590	0.96823030	306.81780000
11.02928590	0.96823030	306.81780000
11.06928590	0.96823030	306.81780000
11.10928590	0.96823030	306.81780000
11.14928590	0.96823030	311.25830000
11.18928590	0.96823030	311.25830000
11.22928590	0.96823030	306.81780000
11.26928590	0.96823030	306.81780000
11.30928590	0.96823030	306.81780000
11.34928590	0.98574790	306.81780000
11.38928589	0.98574790	306.81780000
11.42928589	0.98574790	306.81780000
11.46928589	0.98574790	311.25830000
11.50928589	0.96823030	306.81780000
11.54928589	0.96823030	306.81780000
11.58928589	0.96823030	311.25830000
11.62928589	0.96823030	306.81780000
11.66928589	0.96823030	311.25830000
11.70928589	0.98574790	306.81780000
11.74928589	0.98574790	311.25830000
11.78928589	0.96823030	311.25830000
11.82928589	0.96823030	306.81780000
11.86928589	0.98574790	311.25830000
11.90928589	0.96823030	311.25830000
11.94928589	0.96823030	306.81780000
11.98928589	0.96823030	311.25830000
12.02928589	0.96823030	311.25830000
12.06928589	0.96823030	311.25830000
12.10928589	0.96823030	311.25830000
12.14928589	0.96823030	311.25830000
12.18928589	0.96823030	311.25830000
12.22928589	0.96823030	311.25830000
12.26928589	0.96823030	306.81780000
12.30928589	0.98574790	311.25830000
12.34928589	0.98574790	311.25830000
12.38928589	0.96823030	306.81780000
12.42928589	0.96823030	311.25830000
12.46928589	0.98574790	306.81780000
12.50928589	0.96823030	311.25830000
12.54928589	0.96823030	306.81780000
12.58928589	0.96823030	306.81780000
12.62928589	0.96823030	306.81780000
12.66928589	0.98574790	311.25830000
12.70928589	0.98574790	311.25830000
12.74928589	0.98574790	311.25830000
12.78928589	0.96823030	311.25830000
12.82928589	0.96823030	306.81780000
12.86928589	0.96823030	311.25830000
12.90928589	0.96823030	311.25830000
12.94928589	0.96823030	311.25830000
12.98928589	0.98574790	311.25830000
13.02928588	0.96823030	306.81780000
13.06928588	0.98574790	311.25830000
13.10928588	0.98574790	311.25830000
13.14928588	0.96823030	306.81780000
13.18928588	0.98574790	306.81780000
13.22928588	0.96823030	311.25830000
13.26928588	0.98574790	311.25830000
13.30928588	0.96823030	306.81780000
13.34928588	0.96823030	311.25830000
13.38928588	0.98574790	306.81780000
13.42928588	0.96823030	311.25830000
13.46928588	0.96823030	306.81780000
13.50928588	0.96823030	306.81780000
13.54928588	0.96823030	306.81780000
13.58928588	0.98574790	306.81780000
13.62928588	0.96823030	306.81780000
13.66928588	0.96823030	306.81780000
13.70928588	0.98574790	306.81780000
13.74928588	0.98574790	306.81780000
13.78928588	0.96823030	306.81780000
13.82928588	0.96823030	306.81780000
13.86928588	0.96823030	311.25830000
13.90928588	0.96823030	306.81780000
13.94928588	0.98574790	306.81780000
13.98928588	0.96823030	306.81780000
14.02928588	0.98574790	306.81780000
14.06928588	0.96823030	306.81780000
14.10928588	0.96823030	306.81780000
14.14928588	0.96823030	306.81780000
14.18928588	0.96823030	306.81780000
14.22928588	0.96823030	306.81780000
14.26928588	0.96823030	306.81780000
14.30928588	0.96823030	306.81780000
14.34928588	0.96823030	306.81780000
14.38928588	0.96823030	306.81780000
14.42928588	0.96823030	306.81780000
14.46928588	0.96823030	306.81780000
14.50928588	0.98574790	302.37740000
14.54928588	0.96823030	306.81780000
14.58928588	0.98574790	302.37740000
14.62928588	0.98574790	306.81780000
14.66928587	0.98574790	306.81780000
14.70928587	0.96823030	306.81780000
14.74928587	0.96823030	306.81780000
14.78928587	0.96823030	302.37740000
14.82928587	0.96823030	306.81780000
14.86928587	0.96823030	302.37740000
14.90928587	0.98574790	306.81780000
14.94928587	0.98574790	306.81780000
14.98928587	0.98574790	306.81780000
15.02928587	0.98574790	302.37740000
15.06928587	0.96823030	302.37740000
15.10928587	0.96823030	302.37740000
15.14928587	0.98574790	302.37740000
15.18928587	0.98574790	302.37740000
15.22928587	0.96823030	302.37740000
15.26928587	0.98574790	302.37740000
15.30928587	0.98574790	302.37740000
15.34928587	0.96823030	302.37740000
15.38928587	0.96823030	297.93700000
15.42928587	0.96823030	297.93700000
15.46928587	0.96823030	302.37740000
15.50928587	0.96823030	302.37740000
15.54928587	0.96823030	297.93700000
15.58928587	0.98574790	297.93700000
15.62928587	0.96823030	297.93700000
15.66928587	0.96823030	297.93700000
15.70928587	0.96823030	297.93700000
15.74928587	0.96823030	297.93700000
15.78928587	0.98574790	297.93700000
15.82928587	0.96823030	297.93700000
15.86928587	0.98574790	297.93700000
15.90928587	0.98574790	297.93700000
15.94928587	0.98574790	293.49650000
15.98928587	0.96823030	297.93700000
16.02928587	0.96823030	297.93700000
16.06928587	0.96823030	297.93700000
16.10928587	0.96823030	297.93700000
16.14928587	0.96823030	297.93700000
16.18928587	0.96823030	297.93700000
16.22928587	0.98574790	293.49650000
16.26928587	0.96823030	297.93700000
16.30928586	0.96823030	297.93700000
16.34928586	0.98574790	297.93700000
16.38928586	0.96823030	293.49650000
16.42928586	0.96823030	297.93700000
16.46928586	0.96823030	293.49650000
16.50928586	0.98574790	297.93700000
16.54928586	0.98574790	293.49650000
16.58928586	0.96823030	293.49650000
16.62928586	0.96823030	293.49650000
16.66928586	0.96823030	293.49650000
16.70928586	0.96823030	293.49650000
16.74928586	0.98574790	293.49650000
16.78928586	0.96823030	293.49650000
16.82928586	0.98574790	289.07130000
16.86928586	0.96823030	289.07130000
16.90928586	0.96823030	289.07130000
16.94928586	0.98574790	289.07130000
16.98928586	0.96823030	289.07130000
17.02928586	0.96823030	293.49650000
17.06928586	0.96823030	289.07130000
17.10928586	0.96823030	289.07130000
17.14928586	0.98574790	289.07130000
17.18928586	0.98574790	289.07130000
17.22928586	0.98574790	289.07130000
17.26928586	0.98574790	289.07130000
17.30928586	0.98574790	289.07130000
17.34928586	0.96823030	289.07130000
17.38928586	0.96823030	289.07130000
17.42928586	0.96823030	289.07130000
17.46928586	0.96823030	289.07130000
17.50928586	0.98574790	284.63090000
17.54928586	0.98574790	289.07130000
17.58928586	0.98574790	284.63090000
17.62928586	0.96823030	289.07130000
17.66928586	0.98574790	284.63090000
17.70928586	0.98574790	289.07130000
17.74928586	0.98574790	284.63090000
17.78928586	0.98574790	284.63090000
17.82928586	0.98574790	284.63090000
17.86928586	0.98574790	284.63090000
17.90928586	0.98574790	284.63090000
17.94928585	0.98574790	284.63090000
17.98928585	0.98574790	284.63090000
18.02928585	0.96823030	280.19040000
18.06928585	0.96823030	284.63090000
18.10928585	0.98574790	284.63090000
18.14928585	0.98574790	284.63090000
18.18928585	0.96823030	280.19040000
18.22928585	0.96823030	284.63090000
18.26928585	0.96823030	284.63090000
18.30928585	0.96823030	275.75000000
18.34928585	0.96823030	293.49650000
18.38928585	0.96823030	275.75000000
18.42928585	0.96823030	297.93700000
18.46928585	0.96823030	293.49650000
18.50928585	0.98574790	271.32480000
18.54928585	0.96823030	302.37740000
18.58928585	0.98574790	275.75000000
18.62928585	0.96823030	275.75000000
18.66928585	0.96823030	280.19040000
18.70928585	0.96823030	280.19040000
18.74928585	0.98574790	275.75000000
18.78928585	0.98574790	275.75000000
18.82928585	0.96823030	280.19040000
18.86928585	0.96823030	271.32480000
18.90928585	0.98574790	280.19040000
18.94928585	0.98574790	280.19040000
18.98928585	0.98574790	275.75000000
19.02928585	0.96823030	275.75000000
19.06928585	0.98574790	275.75000000
19.10928585	0.98574790	275.75000000
19.14928585	0.98574790	275.75000000
19.18928585	0.98574790	275.75000000
19.22928585	0.98574790	275.75000000
19.26928585	0.98574790	275.75000000
19.30928585	0.96823030	275.75000000
19.34928585	0.96823030	275.75000000
19.38928585	0.96823030	271.32480000
19.42928585	0.96823030	275.75000000
19.46928585	0.96823030	271.32480000
19.50928585	0.98574790	271.32480000
19.54928585	0.96823030	271.32480000
19.58928585	0.96823030	271.32480000
19.62928584	0.98574790	266.88440000
19.66928584	0.96823030	271.32480000
19.70928584	0.98574790	271.32480000
19.74928584	0.98574790	271.32480000
19.78928584	0.96823030	266.88440000
19.82928584	0.98574790	271.32480000
19.86928584	0.96823030	271.32480000
19.90928584	0.96823030	266.88440000
19.94928584	0.98574790	266.88440000
19.98928584	0.96823030	266.88440000
20.02928584	0.98574790	271.32480000
20.06928584	0.96823030	266.88440000
20.10928584	0.96823030	266.88440000
20.14928584	0.98574790	266.88440000
20.18928584	0.96823030	266.88440000
20.22928584	0.98574790	266.88440000
20.26928584	0.98574790	266.88440000
20.30928584	0.98574790	266.88440000
20.34928584	0.98574790	262.44390000
20.38928584	0.98574790	266.88440000
20.42928584	0.98574790	262.44390000
20.46928584	0.98574790	262.44390000
20.50928584	0.98574790	262.44390000
20.54928584	0.96823030	262.44390000
20.58928584	0.98574790	262.44390000
20.62928584	0.98574790	262.44390000
20.66928584	0.98574790	262.44390000
20.70928584	0.96823030	262.44390000
20.74928584	0.98574790	258.00350000
