t	vin	vout
-8.41800465	0.00427259	-3.75377700
-8.37800465	-0.01324503	-3.75377700
-8.33800465	-0.01324503	0.68666640
-8.29800465	-0.01324503	-3.75377700
-8.25800466	0.00427259	-3.75377700
-8.21800466	-0.01324503	0.68666640
-8.17800466	-0.01324503	-3.75377700
-8.13800466	-0.01324503	0.68666640
-8.09800466	0.00427259	-3.75377700
-8.05800466	-0.01324503	0.68666640
-8.01800466	-0.01324503	-3.75377700
-7.97800466	-0.01324503	-3.75377700
-7.93800466	-0.01324503	-3.75377700
-7.89800466	-0.01324503	0.68666640
-7.85800466	0.00427259	-3.75377700
-7.81800466	-0.01324503	-3.75377700
-7.77800466	-0.01324503	-3.75377700
-7.73800466	-0.01324503	0.68666640
-7.69800466	-0.01324503	0.68666640
-7.65800466	-0.01324503	-3.75377700
-7.61800466	-0.01324503	-3.75377700
-7.57800466	-0.01324503	0.68666640
-7.53800466	0.00427259	0.68666640
-7.49800466	-0.01324503	0.68666640
-7.45800466	-0.01324503	-3.75377700
-7.41800466	-0.01324503	-3.75377700
-7.37800466	-0.01324503	0.68666640
-7.33800466	-0.01324503	-3.75377700
-7.29800466	-0.01324503	-3.75377700
-7.25800466	0.00427259	-3.75377700
-7.21800466	0.00427259	-3.75377700
-7.17800466	-0.01324503	-3.75377700
-7.13800466	-0.01324503	-3.75377700
-7.09800466	-0.01324503	-3.75377700
-7.05800466	-0.01324503	-3.75377700
-7.01800466	-0.01324503	0.68666640
-6.97800466	-0.01324503	-3.75377700
-6.93800466	-0.01324503	-3.75377700
-6.89800466	-0.01324503	-3.75377700
-6.85800466	-0.01324503	-3.75377700
-6.81800466	-0.01324503	-3.75377700
-6.77800466	0.00427259	-3.75377700
-6.73800466	-0.01324503	0.68666640
-6.69800466	-0.01324503	0.68666640
-6.65800466	-0.01324503	0.68666640
-6.61800467	-0.01324503	0.68666640
-6.57800467	0.00427259	-3.75377700
-6.53800467	-0.01324503	0.68666640
-6.49800467	-0.01324503	-3.75377700
-6.45800467	-0.01324503	-3.75377700
-6.41800467	-0.01324503	-3.75377700
-6.37800467	-0.01324503	0.68666640
-6.33800467	-0.01324503	-3.75377700
-6.29800467	-0.01324503	-3.75377700
-6.25800467	0.00427259	-3.75377700
-6.21800467	-0.01324503	-3.75377700
-6.17800467	-0.01324503	0.68666640
-6.13800467	-0.01324503	0.68666640
-6.09800467	-0.01324503	-3.75377700
-6.05800467	-0.01324503	0.68666640
-6.01800467	-0.01324503	0.68666640
-5.97800467	-0.01324503	-3.75377700
-5.93800467	-0.01324503	0.68666640
-5.89800467	-0.01324503	-3.75377700
-5.85800467	-0.01324503	0.68666640
-5.81800467	-0.03076266	0.68666640
-5.77800467	-0.04828028	0.68666640
-5.73800467	-0.10089420	0.68666640
-5.69800467	-0.13592950	-3.75377700
-5.65800467	-0.17096470	0.68666640
-5.61800467	-0.24109620	0.68666640
-5.57800467	-0.29364910	0.68666640
-5.53800467	-0.32874540	-3.75377700
-5.49800467	-0.36378060	-3.75377700
-5.45800467	-0.41639450	-3.75377700
-5.41800467	-0.45142980	0.68666640
-5.37800467	-0.50398270	-3.75377700
-5.33800467	-0.53907900	0.68666640
-5.29800467	-0.57411420	-3.75377700
-5.25800467	-0.62666710	-3.75377700
-5.21800467	-0.66176340	-3.75377700
-5.17800467	-0.67928100	-3.75377700
-5.13800467	-0.71431630	-3.75377700
-5.09800467	-0.73183390	-3.75377700
-5.05800467	-0.76693020	-3.75377700
-5.01800467	-0.78444780	-3.75377700
-4.97800468	-0.80196550	0.68666640
-4.93800468	-0.81948300	-3.75377700
-4.89800468	-0.83700070	-3.75377700
-4.85800468	-0.85451840	-3.75377700
-4.81800468	-0.87209700	-3.75377700
-4.77800468	-0.87209700	-3.75377700
-4.73800468	-0.88961460	-3.75377700
-4.69800468	-0.88961460	-3.75377700
-4.65800468	-0.90713210	-3.75377700
-4.61800468	-0.90713210	-3.75377700
-4.57800468	-0.92464980	-3.75377700
-4.53800468	-0.94216750	0.68666640
-4.49800468	-0.94216750	0.68666640
-4.45800468	-0.94216750	-3.75377700
-4.41800468	-0.94216750	-3.75377700
-4.37800468	-0.94216750	-3.75377700
-4.33800468	-0.94216750	-3.75377700
-4.29800468	-0.95968510	0.68666640
-4.25800468	-0.95968510	-3.75377700
-4.21800468	-0.95968510	0.68666640
-4.17800468	-0.97726370	-3.75377700
-4.13800468	-0.97726370	0.68666640
-4.09800468	-0.97726370	-3.75377700
-4.05800468	-0.97726370	-3.75377700
-4.01800468	-0.97726370	-3.75377700
-3.97800468	-0.97726370	0.68666640
-3.93800468	-0.97726370	0.68666640
-3.89800468	-0.97726370	0.68666640
-3.85800468	-0.97726370	0.68666640
-3.81800468	-0.99478140	-3.75377700
-3.77800468	-0.99478140	0.68666640
-3.73800468	-0.99478140	0.68666640
-3.69800468	-0.99478140	0.68666640
-3.65800468	-0.99478140	5.12711000
-3.61800468	-0.99478140	0.68666640
-3.57800468	-0.99478140	0.68666640
-3.53800468	-0.99478140	5.12711000
-3.49800468	-0.99478140	5.12711000
-3.45800468	-0.99478140	5.12711000
-3.41800468	-0.99478140	-3.75377700
-3.37800468	-0.99478140	5.12711000
-3.33800469	-0.99478140	0.68666640
-3.29800469	-0.99478140	13.99274000
-3.25800469	-0.94216750	27.29881000
-3.21800469	-0.95968510	9.55229400
-3.17800469	-0.97726370	5.12711000
-3.13800469	-0.97726370	-8.19422000
-3.09800469	-0.99478140	-3.75377700
-3.05800469	-0.99478140	0.68666640
-3.01800469	-0.99478140	5.12711000
-2.97800469	-0.97726370	9.55229400
-2.93800469	-0.97726370	13.99274000
-2.89800469	-0.99478140	5.12711000
-2.85800469	-0.99478140	5.12711000
-2.81800469	-0.99478140	5.12711000
-2.77800469	-0.99478140	9.55229400
-2.73800469	-0.99478140	9.55229400
-2.69800469	-0.99478140	9.55229400
-2.65800469	-0.99478140	9.55229400
-2.61800469	-0.99478140	9.55229400
-2.57800469	-0.99478140	9.55229400
-2.53800469	-0.99478140	9.55229400
-2.49800469	-0.99478140	9.55229400
-2.45800469	-0.99478140	9.55229400
-2.41800469	-0.99478140	9.55229400
-2.37800469	-0.99478140	9.55229400
-2.33800469	-0.99478140	13.99274000
-2.29800469	-0.99478140	9.55229400
-2.25800469	-0.99478140	13.99274000
-2.21800469	-0.99478140	9.55229400
-2.17800469	-0.99478140	13.99274000
-2.13800469	-0.99478140	9.55229400
-2.09800469	-0.99478140	13.99274000
-2.05800469	-0.99478140	13.99274000
-2.01800469	-0.99478140	13.99274000
-1.97800469	-0.99478140	13.99274000
-1.93800469	-0.99478140	13.99274000
-1.89800469	-0.99478140	18.43318000
-1.85800469	-0.99478140	13.99274000
-1.81800469	-0.99478140	18.43318000
-1.77800469	-0.99478140	13.99274000
-1.73800469	-0.99478140	18.43318000
-1.69800470	-0.99478140	18.43318000
-1.65800470	-0.99478140	22.87362000
-1.61800470	-0.99478140	18.43318000
-1.57800470	-0.99478140	18.43318000
-1.53800470	-0.99478140	18.43318000
-1.49800470	-0.99478140	18.43318000
-1.45800470	-0.99478140	22.87362000
-1.41800470	-0.99478140	22.87362000
-1.37800470	-0.99478140	22.87362000
-1.33800470	-0.99478140	22.87362000
-1.29800470	-0.97726370	22.87362000
-1.25800470	-0.94216750	22.87362000
-1.21800470	-0.92464980	22.87362000
-1.17800470	-0.90713210	22.87362000
-1.13800470	-0.87209700	27.29881000
-1.09800470	-0.85451840	27.29881000
-1.05800470	-0.83700070	27.29881000
-1.01800470	-0.78444780	27.29881000
-0.97800470	-0.74941250	27.29881000
-0.93800470	-0.71431630	27.29881000
-0.89800470	-0.67928100	31.72399000
-0.85800470	-0.64424570	31.72399000
-0.81800470	-0.59163190	31.72399000
-0.77800470	-0.57411420	31.72399000
-0.73800470	-0.55659660	31.72399000
-0.69800470	-0.52156140	31.72399000
-0.65800470	-0.48646510	31.72399000
-0.61800470	-0.45142980	36.16443000
-0.57800470	-0.43391220	36.16443000
-0.53800470	-0.41639450	36.16443000
-0.49800470	-0.38129830	40.60488000
-0.45800470	-0.38129830	40.60488000
-0.41800470	-0.34626300	40.60488000
-0.37800470	-0.34626300	40.60488000
-0.33800470	-0.32874540	40.60488000
-0.29800470	-0.31122780	45.04532000
-0.25800470	-0.29364910	36.16443000
-0.21800470	-0.27613150	45.04532000
-0.17800470	-0.25861390	40.60488000
-0.13800470	-0.24109620	45.04532000
-0.09800470	-0.22357860	45.04532000
-0.05800471	-0.20606100	45.04532000
-0.01800471	-0.20606100	45.04532000
0.02199529	-0.18854340	45.04532000
0.06199529	-0.17096470	45.04532000
0.10199529	-0.15344710	45.04532000
0.14199529	-0.15344710	49.47050000
0.18199529	-0.15344710	49.47050000
0.22199529	-0.13592950	49.47050000
0.26199529	-0.11841180	49.47050000
0.30199529	-0.10089420	49.47050000
0.34199529	-0.10089420	49.47050000
0.38199529	-0.10089420	49.47050000
0.42199529	-0.10089420	49.47050000
0.46199529	-0.08337657	53.91095000
0.50199529	-0.08337657	49.47050000
0.54199529	-0.08337657	53.91095000
0.58199529	-0.06579791	49.47050000
0.62199529	-0.06579791	49.47050000
0.66199529	-0.06579791	53.91095000
0.70199529	-0.04828028	53.91095000
0.74199529	-0.04828028	58.35139000
0.78199529	-0.03076266	53.91095000
0.82199529	-0.03076266	58.35139000
0.86199529	-0.03076266	58.35139000
0.90199529	-0.03076266	58.35139000
0.94199529	-0.03076266	53.91095000
0.98199529	-0.03076266	62.79184000
1.02199529	-0.03076266	58.35139000
1.06199529	-0.03076266	58.35139000
1.10199529	-0.01324503	58.35139000
1.14199529	-0.03076266	58.35139000
1.18199529	-0.01324503	58.35139000
1.22199529	-0.01324503	58.35139000
1.26199529	-0.01324503	58.35139000
1.30199529	-0.01324503	62.79184000
1.34199529	-0.01324503	62.79184000
1.38199529	-0.01324503	58.35139000
1.42199529	-0.01324503	62.79184000
1.46199529	-0.01324503	58.35139000
1.50199529	-0.01324503	62.79184000
1.54199529	-0.01324503	62.79184000
1.58199528	-0.01324503	62.79184000
1.62199528	-0.01324503	53.91095000
1.66199528	-0.01324503	58.35139000
1.70199528	-0.03076266	49.47050000
1.74199528	-0.06579791	71.65746000
1.78199528	0.00427259	76.09790000
1.82199528	-0.01324503	67.21702000
1.86199528	-0.01324503	58.35139000
1.90199528	-0.03076266	58.35139000
1.94199528	-0.01324503	67.21702000
1.98199528	-0.01324503	67.21702000
2.02199528	-0.01324503	71.65746000
2.06199528	-0.01324503	71.65746000
2.10199528	-0.01324503	67.21702000
2.14199528	-0.01324503	67.21702000
2.18199528	-0.01324503	71.65746000
2.22199528	-0.01324503	67.21702000
2.26199528	-0.01324503	76.09790000
2.30199528	-0.01324503	71.65746000
2.34199528	-0.01324503	71.65746000
2.38199528	-0.01324503	71.65746000
2.42199528	-0.01324503	71.65746000
2.46199528	-0.01324503	71.65746000
2.50199528	0.00427259	71.65746000
2.54199528	-0.01324503	76.09790000
2.58199528	-0.01324503	71.65746000
2.62199528	-0.01324503	76.09790000
2.66199528	-0.01324503	76.09790000
2.70199528	-0.01324503	71.65746000
2.74199528	0.00427259	71.65746000
2.78199528	-0.01324503	76.09790000
2.82199528	-0.01324503	76.09790000
2.86199528	-0.01324503	76.09790000
2.90199528	-0.01324503	67.21702000
2.94199528	-0.01324503	76.09790000
2.98199528	-0.01324503	76.09790000
3.02199528	-0.01324503	76.09790000
3.06199528	-0.01324503	76.09790000
3.10199528	0.00427259	76.09790000
3.14199528	-0.01324503	76.09790000
3.18199528	-0.01324503	76.09790000
3.22199528	-0.01324503	76.09790000
3.26199527	-0.01324503	76.09790000
3.30199527	-0.01324503	80.53835000
3.34199527	-0.01324503	76.09790000
3.38199527	-0.01324503	76.09790000
3.42199527	-0.01324503	76.09790000
3.46199527	-0.01324503	80.53835000
3.50199527	-0.01324503	76.09790000
3.54199527	-0.01324503	80.53835000
3.58199527	0.00427259	80.53835000
3.62199527	0.00427259	80.53835000
3.66199527	-0.01324503	80.53835000
3.70199527	-0.01324503	80.53835000
3.74199527	-0.01324503	80.53835000
3.78199527	-0.01324503	80.53835000
3.82199527	0.00427259	80.53835000
3.86199527	-0.01324503	80.53835000
3.90199527	-0.01324503	80.53835000
3.94199527	-0.01324503	80.53835000
3.98199527	-0.01324503	80.53835000
4.02199527	-0.01324503	80.53835000
4.06199527	-0.01324503	84.96352000
4.10199527	0.00427259	80.53835000
4.14199527	-0.01324503	84.96352000
4.18199527	-0.01324503	80.53835000
4.22199527	-0.01324503	84.96352000
4.26199527	-0.01324503	80.53835000
4.30199527	-0.01324503	80.53835000
4.34199527	-0.01324503	84.96352000
4.38199527	0.00427259	80.53835000
4.42199527	-0.01324503	84.96352000
4.46199527	-0.01324503	84.96352000
4.50199527	0.00427259	84.96352000
4.54199527	-0.01324503	80.53835000
4.58199527	-0.01324503	84.96352000
4.62199527	-0.01324503	84.96352000
4.66199527	-0.01324503	84.96352000
4.70199527	-0.01324503	84.96352000
4.74199527	-0.01324503	84.96352000
4.78199527	-0.01324503	80.53835000
4.82199527	-0.01324503	84.96352000
4.86199527	-0.01324503	84.96352000
4.90199526	-0.01324503	84.96352000
4.94199526	-0.01324503	84.96352000
4.98199526	-0.01324503	84.96352000
5.02199526	-0.01324503	80.53835000
5.06199526	-0.01324503	84.96352000
5.10199526	-0.01324503	84.96352000
5.14199526	-0.01324503	84.96352000
5.18199526	-0.01324503	84.96352000
5.22199526	-0.01324503	84.96352000
5.26199526	-0.01324503	84.96352000
5.30199526	-0.01324503	84.96352000
5.34199526	-0.01324503	84.96352000
5.38199526	-0.01324503	84.96352000
5.42199526	-0.01324503	84.96352000
5.46199526	-0.01324503	84.96352000
5.50199526	-0.01324503	84.96352000
5.54199526	-0.01324503	89.40398000
5.58199526	0.00427259	89.40398000
5.62199526	-0.01324503	89.40398000
5.66199526	-0.01324503	84.96352000
5.70199526	-0.01324503	89.40398000
5.74199526	-0.01324503	89.40398000
5.78199526	-0.01324503	84.96352000
5.82199526	-0.01324503	84.96352000
5.86199526	-0.01324503	84.96352000
5.90199526	-0.01324503	89.40398000
5.94199526	-0.01324503	89.40398000
5.98199526	-0.01324503	89.40398000
6.02199526	-0.01324503	89.40398000
6.06199526	-0.01324503	84.96352000
6.10199526	-0.01324503	89.40398000
6.14199526	-0.01324503	84.96352000
6.18199526	-0.01324503	89.40398000
6.22199526	-0.01324503	89.40398000
6.26199526	-0.01324503	89.40398000
6.30199526	-0.01324503	89.40398000
6.34199526	-0.01324503	89.40398000
6.38199526	-0.01324503	89.40398000
6.42199526	-0.01324503	89.40398000
6.46199526	-0.01324503	89.40398000
6.50199526	-0.01324503	89.40398000
6.54199525	-0.01324503	89.40398000
6.58199525	-0.01324503	89.40398000
6.62199525	-0.01324503	89.40398000
6.66199525	-0.01324503	89.40398000
6.70199525	-0.01324503	89.40398000
6.74199525	-0.01324503	89.40398000
6.78199525	0.00427259	89.40398000
6.82199525	-0.01324503	89.40398000
6.86199525	-0.01324503	93.84441000
6.90199525	0.00427259	89.40398000
6.94199525	-0.01324503	89.40398000
6.98199525	-0.01324503	89.40398000
7.02199525	-0.01324503	93.84441000
7.06199525	-0.01324503	93.84441000
7.10199525	-0.01324503	84.96352000
7.14199525	-0.01324503	89.40398000
7.18199525	-0.01324503	89.40398000
7.22199525	-0.01324503	89.40398000
7.26199525	-0.01324503	89.40398000
7.30199525	-0.01324503	93.84441000
7.34199525	-0.01324503	89.40398000
7.38199525	-0.01324503	93.84441000
7.42199525	-0.01324503	89.40398000
7.46199525	-0.01324503	93.84441000
7.50199525	-0.01324503	89.40398000
7.54199525	-0.01324503	93.84441000
7.58199525	-0.01324503	89.40398000
7.62199525	-0.01324503	89.40398000
7.66199525	0.00427259	93.84441000
7.70199525	-0.01324503	89.40398000
7.74199525	-0.01324503	93.84441000
7.78199525	-0.01324503	89.40398000
7.82199525	-0.01324503	89.40398000
7.86199525	-0.01324503	89.40398000
7.90199525	-0.01324503	89.40398000
7.94199525	-0.01324503	93.84441000
7.98199525	-0.01324503	89.40398000
8.02199525	-0.01324503	93.84441000
8.06199525	-0.01324503	89.40398000
8.10199525	-0.01324503	93.84441000
8.14199525	-0.01324503	89.40398000
8.18199524	-0.01324503	89.40398000
8.22199524	-0.01324503	89.40398000
8.26199524	-0.01324503	89.40398000
8.30199524	-0.01324503	89.40398000
8.34199524	-0.01324503	93.84441000
8.38199524	-0.01324503	93.84441000
8.42199524	-0.01324503	89.40398000
8.46199524	-0.01324503	89.40398000
8.50199524	-0.01324503	89.40398000
8.54199524	-0.01324503	89.40398000
8.58199524	-0.01324503	89.40398000
8.62199524	0.00427259	89.40398000
8.66199524	-0.01324503	89.40398000
8.70199524	-0.01324503	93.84441000
8.74199524	-0.01324503	93.84441000
8.78199524	-0.01324503	93.84441000
8.82199524	-0.01324503	93.84441000
8.86199524	-0.01324503	89.40398000
8.90199524	-0.01324503	93.84441000
8.94199524	-0.01324503	89.40398000
8.98199524	-0.01324503	89.40398000
9.02199524	-0.01324503	89.40398000
9.06199524	-0.01324503	93.84441000
9.10199524	-0.01324503	89.40398000
9.14199524	-0.01324503	93.84441000
9.18199524	-0.01324503	89.40398000
9.22199524	-0.01324503	84.96352000
9.26199524	-0.01324503	93.84441000
9.30199524	-0.01324503	89.40398000
9.34199524	-0.01324503	93.84441000
9.38199524	-0.01324503	89.40398000
9.42199524	-0.01324503	93.84441000
9.46199524	-0.01324503	89.40398000
9.50199524	-0.01324503	89.40398000
9.54199524	-0.01324503	89.40398000
9.58199524	-0.01324503	89.40398000
9.62199524	-0.01324503	89.40398000
9.66199524	-0.01324503	89.40398000
9.70199524	-0.01324503	89.40398000
9.74199524	-0.01324503	89.40398000
9.78199524	-0.01324503	89.40398000
9.82199523	-0.01324503	89.40398000
9.86199523	-0.01324503	89.40398000
9.90199523	-0.01324503	89.40398000
9.94199523	-0.01324503	89.40398000
9.98199523	-0.01324503	89.40398000
10.02199523	-0.01324503	84.96352000
10.06199523	-0.01324503	89.40398000
10.10199523	-0.01324503	89.40398000
10.14199523	-0.01324503	89.40398000
10.18199523	-0.01324503	89.40398000
10.22199523	-0.01324503	89.40398000
10.26199523	-0.01324503	84.96352000
10.30199523	-0.01324503	89.40398000
10.34199523	0.00427259	84.96352000
10.38199523	-0.01324503	89.40398000
10.42199523	-0.01324503	84.96352000
10.46199523	-0.01324503	89.40398000
10.50199523	-0.01324503	84.96352000
10.54199523	-0.01324503	84.96352000
10.58199523	-0.01324503	84.96352000
10.62199523	-0.01324503	84.96352000
10.66199523	0.00427259	84.96352000
10.70199523	0.00427259	89.40398000
10.74199523	-0.01324503	84.96352000
10.78199523	-0.01324503	84.96352000
10.82199523	-0.01324503	89.40398000
10.86199523	-0.01324503	84.96352000
10.90199523	-0.01324503	84.96352000
10.94199523	-0.01324503	84.96352000
10.98199523	-0.01324503	84.96352000
11.02199523	-0.01324503	84.96352000
11.06199523	0.00427259	84.96352000
11.10199523	-0.01324503	84.96352000
11.14199523	-0.01324503	84.96352000
11.18199523	-0.01324503	84.96352000
11.22199523	-0.01324503	89.40398000
11.26199523	-0.01324503	89.40398000
11.30199523	-0.01324503	84.96352000
11.34199523	-0.01324503	80.53835000
11.38199523	-0.01324503	84.96352000
11.42199523	-0.01324503	84.96352000
11.46199522	-0.01324503	89.40398000
11.50199522	-0.01324503	84.96352000
11.54199522	-0.01324503	84.96352000
11.58199522	-0.01324503	84.96352000
11.62199522	-0.01324503	84.96352000
11.66199522	-0.01324503	84.96352000
11.70199522	-0.01324503	84.96352000
11.74199522	-0.01324503	84.96352000
11.78199522	0.00427259	84.96352000
11.82199522	0.00427259	84.96352000
11.86199522	0.00427259	84.96352000
11.90199522	-0.01324503	89.40398000
11.94199522	-0.03076266	49.47050000
11.98199522	-0.03076266	71.65746000
12.02199522	-0.08337657	80.53835000
12.06199522	-0.03076266	93.84441000
12.10199522	-0.03076266	93.84441000
12.14199522	-0.01324503	84.96352000
12.18199522	0.00427259	89.40398000
12.22199522	-0.01324503	80.53835000
12.26199522	-0.01324503	80.53835000
12.30199522	-0.01324503	84.96352000
12.34199522	-0.01324503	84.96352000
12.38199522	-0.01324503	80.53835000
12.42199522	-0.01324503	84.96352000
12.46199522	0.00427259	84.96352000
12.50199522	-0.01324503	84.96352000
12.54199522	-0.01324503	80.53835000
12.58199522	-0.01324503	84.96352000
12.62199522	-0.01324503	84.96352000
12.66199522	-0.01324503	84.96352000
12.70199522	-0.01324503	84.96352000
12.74199522	-0.01324503	84.96352000
12.78199522	-0.01324503	84.96352000
12.82199522	-0.01324503	84.96352000
12.86199522	-0.01324503	84.96352000
12.90199522	-0.01324503	80.53835000
12.94199522	-0.01324503	84.96352000
12.98199522	-0.01324503	84.96352000
13.02199522	-0.01324503	84.96352000
13.06199522	-0.01324503	84.96352000
13.10199521	-0.01324503	84.96352000
13.14199521	-0.01324503	80.53835000
13.18199521	-0.01324503	84.96352000
13.22199521	-0.01324503	80.53835000
13.26199521	-0.01324503	84.96352000
13.30199521	-0.01324503	84.96352000
13.34199521	-0.01324503	84.96352000
13.38199521	-0.01324503	84.96352000
13.42199521	-0.01324503	80.53835000
13.46199521	-0.01324503	84.96352000
13.50199521	-0.01324503	80.53835000
13.54199521	-0.01324503	84.96352000
13.58199521	-0.01324503	76.09790000
13.62199521	-0.01324503	84.96352000
13.66199521	-0.01324503	80.53835000
13.70199521	-0.01324503	84.96352000
13.74199521	-0.01324503	80.53835000
13.78199521	-0.01324503	80.53835000
13.82199521	-0.01324503	80.53835000
13.86199521	-0.01324503	80.53835000
13.90199521	-0.01324503	80.53835000
13.94199521	-0.01324503	80.53835000
13.98199521	0.00427259	84.96352000
14.02199521	0.00427259	80.53835000
14.06199521	0.00427259	80.53835000
14.10199521	-0.01324503	80.53835000
14.14199521	-0.01324503	80.53835000
